
SetupTitle, ITO_IdVG
PrimitiveTest, I/V Sweep
TestParameter, Context.MainFrame, 4156C
TestParameter, Channel.UnitType, SMU, SMU, SMU
TestParameter, Channel.Unit, SMU3:HR, SMU1:HR, SMU4:HR
TestParameter, Channel.IName, Ig, Id, Is
TestParameter, Channel.VName, Vg, Vd, Vs
TestParameter, Channel.Mode, V, V, COMMON
TestParameter, Channel.Func, VAR1, CONST, CONST
TestParameter, Channel.Index, 
TestParameter, Channel.Time, 
TestParameter, Measurement.Port.Unit, SMU3:HR, SMU1:HR, SMU4:HR
TestParameter, Measurement.Port.SeriesResistor, NONE, NONE, NONE
TestParameter, Measurement.Port.Filter, ON, ON, ON
TestParameter, Measurement.Primary.Locus, Double
TestParameter, Measurement.Primary.Scale, LINEAR
TestParameter, Measurement.Primary.Start, -2
TestParameter, Measurement.Primary.Stop, 2
TestParameter, Measurement.Primary.Step, 0.02
TestParameter, Measurement.Primary.Compliance, 0.1
TestParameter, Measurement.Primary.PowerCompliance, 0
TestParameter, Measurement.Aborting.Condition, CONTINUE AT ANY
TestParameter, Measurement.PostOutput.Value, START
TestParameter, Measurement.PostOutput.Retention, OFF
TestParameter, Measurement.Bias.Source, -2, 0.1, 0
TestParameter, Measurement.Bias.Compliance, 0.1, 0.1, 0.1
TestParameter, Measurement.Monitor.Unit, SMU3:HR, SMU1:HR, SMU4:HR
TestParameter, Measurement.Monitor.Adc, HR ADC, HR ADC, HR ADC
TestParameter, Measurement.Monitor.RangingMode, LIMITED, LIMITED, LIMITED
TestParameter, Measurement.Monitor.RangeBoundary, 1nA, 1nA, 1nA
TestParameter, Measurement.Monitor.RangeRating, BY FULL RANGE, BY FULL RANGE, BY FULL RANGE
TestParameter, Measurement.Monitor.RangeRatingCoeff, 50, 50, 50
TestParameter, Measurement.Timing.Hold, 0
TestParameter, Measurement.Timing.Delay, 0.05
TestParameter, Measurement.Adc.HighResolution.AutoZero, OFF
TestParameter, Measurement.Adc.HighResolution.Mode, AUTO
TestParameter, Measurement.Adc.HighResolution.Coeff, 1
TestParameter, Measurement.Ag16440ASelector.SemiconductorRelay.Channel1, DEFAULT
TestParameter, Measurement.Ag16440ASelector.SemiconductorRelay.Channel3, DEFAULT
TestParameter, Function.User.Name, absId, absIs, absIg
TestParameter, Function.User.Unit, A, A, A
TestParameter, Function.User.Definition, abs(Id), abs(Is), abs(Ig)
TestParameter, Output.Graph.Enabled, true
TestParameter, Output.Graph.XAxis.Data, Vg
TestParameter, Output.Graph.XAxis.Scale, Linear
TestParameter, Output.Graph.XAxis.Left, -2
TestParameter, Output.Graph.XAxis.Right, 2
TestParameter, Output.Graph.YAxis.Data, absId, absIs, absIg
TestParameter, Output.Graph.YAxis.Scale, Log, Log, Log
TestParameter, Output.Graph.YAxis.Bottom, 1E-15, 1E-15, 1E-15
TestParameter, Output.Graph.YAxis.Top, 0.1, 0.1, 0.1
TestParameter, Output.Graph.YAxis.Group, , , 
TestParameter, Output.List.Data, Vg, Vd, Id, Is, Ig
TestParameter, AutoAnalysis.Interpolation, false
TestParameter, AutoAnalysis.Line1.Enabled, false
TestParameter, AutoAnalysis.Line1.Type, 1
TestParameter, AutoAnalysis.Line1.Fix, True
TestParameter, AutoAnalysis.Line1.YAxis, 0
TestParameter, AutoAnalysis.Line1.Point1.Type, 0
TestParameter, AutoAnalysis.Line1.Point1.XY.X, 
TestParameter, AutoAnalysis.Line1.Point1.XY.Y, 
TestParameter, AutoAnalysis.Line1.Point1.Data.Var, 
TestParameter, AutoAnalysis.Line1.Point1.Data.Condition, 
TestParameter, AutoAnalysis.Line1.Point1.Data.Start, false
TestParameter, AutoAnalysis.Line1.Point1.Data.StartVar, 
TestParameter, AutoAnalysis.Line1.Point1.Data.StartCondition, 
TestParameter, AutoAnalysis.Line1.Point2.Type, 0
TestParameter, AutoAnalysis.Line1.Point2.XY.X, 
TestParameter, AutoAnalysis.Line1.Point2.XY.Y, 
TestParameter, AutoAnalysis.Line1.Point2.Data.Var, 
TestParameter, AutoAnalysis.Line1.Point2.Data.Condition, 
TestParameter, AutoAnalysis.Line1.Point2.Data.Start, false
TestParameter, AutoAnalysis.Line1.Point2.Data.StartVar, 
TestParameter, AutoAnalysis.Line1.Point2.Data.StartCondition, 
TestParameter, AutoAnalysis.Line1.GradientExpr, 0
TestParameter, AutoAnalysis.Line2.Enabled, false
TestParameter, AutoAnalysis.Line2.Type, 1
TestParameter, AutoAnalysis.Line2.Fix, True
TestParameter, AutoAnalysis.Line2.YAxis, 0
TestParameter, AutoAnalysis.Line2.Point1.Type, 0
TestParameter, AutoAnalysis.Line2.Point1.XY.X, 
TestParameter, AutoAnalysis.Line2.Point1.XY.Y, 
TestParameter, AutoAnalysis.Line2.Point1.Data.Var, 
TestParameter, AutoAnalysis.Line2.Point1.Data.Condition, 
TestParameter, AutoAnalysis.Line2.Point1.Data.Start, false
TestParameter, AutoAnalysis.Line2.Point1.Data.StartVar, 
TestParameter, AutoAnalysis.Line2.Point1.Data.StartCondition, 
TestParameter, AutoAnalysis.Line2.Point2.Type, 0
TestParameter, AutoAnalysis.Line2.Point2.XY.X, 
TestParameter, AutoAnalysis.Line2.Point2.XY.Y, 
TestParameter, AutoAnalysis.Line2.Point2.Data.Var, 
TestParameter, AutoAnalysis.Line2.Point2.Data.Condition, 
TestParameter, AutoAnalysis.Line2.Point2.Data.Start, false
TestParameter, AutoAnalysis.Line2.Point2.Data.StartVar, 
TestParameter, AutoAnalysis.Line2.Point2.Data.StartCondition, 
TestParameter, AutoAnalysis.Line2.GradientExpr, 0
TestParameter, AutoAnalysis.Marker.Enabled, false
TestParameter, AutoAnalysis.Marker.Data.Var, 
TestParameter, AutoAnalysis.Marker.Data.Condition, 
TestParameter, AutoAnalysis.Marker.Data.Start, false
TestParameter, AutoAnalysis.Marker.Data.StartVar, 
TestParameter, AutoAnalysis.Marker.Data.StartCondition, 
MetaData, TestRecord.EntryPoint, true
MetaData, TestRecord.RecordTime, 12/18/2022 15:55:33
MetaData, TestRecord.TestTarget, 
MetaData, TestRecord.IterationIndex, 24
MetaData, TestRecord.Preservation, true
MetaData, TestRecord.Flag, 
MetaData, TestRecord.Remarks, T=30C 2R sample
MetaData, TestRecord.LinkKey, dc50f665-56f6-4b2e-9f7a-edcbc343b53b
Dimension1, 402, 402, 402, 402, 402, 402, 402, 402
Dimension2, 1, 1, 1, 1, 1, 1, 1, 1
DataName, Vg, Vd, Ig, Id, Is, absId, absIs, absIg
DataValue, -2, 0.1, -2.34475E-10, 4.8100000000000007E-13, 3.4700000000000004E-13, 4.8100000000000007E-13, 3.4700000000000004E-13, 2.34475E-10
DataValue, -1.9800000000000002, 0.1, -8.3395000000000013E-11, 3.64E-13, 2.96E-13, 3.64E-13, 2.96E-13, 8.3395000000000013E-11
DataValue, -1.9600000000000002, 0.1, -6.921E-11, 2.2900000000000003E-13, 8.47E-13, 2.2900000000000003E-13, 8.47E-13, 6.921E-11
DataValue, -1.9400000000000002, 0.1, -3.3057E-11, 1.34E-13, 9.3000000000000008E-14, 1.34E-13, 9.3000000000000008E-14, 3.3057E-11
DataValue, -1.9200000000000002, 0.1, -3.1269000000000003E-11, 1.17E-13, 7.5000000000000009E-14, 1.17E-13, 7.5000000000000009E-14, 3.1269000000000003E-11
DataValue, -1.9000000000000001, 0.1, -2.7768000000000004E-11, 1.42E-13, 5.2000000000000006E-14, 1.42E-13, 5.2000000000000006E-14, 2.7768000000000004E-11
DataValue, -1.8800000000000001, 0.1, -2.5257000000000002E-11, 1.3700000000000002E-13, 6.0000000000000009E-14, 1.3700000000000002E-13, 6.0000000000000009E-14, 2.5257000000000002E-11
DataValue, -1.86, 0.1, -2.2483000000000003E-11, 6.5E-14, 4.3000000000000006E-14, 6.5E-14, 4.3000000000000006E-14, 2.2483000000000003E-11
DataValue, -1.84, 0.1, -2.1143E-11, 5.8E-14, 1.2000000000000001E-14, 5.8E-14, 1.2000000000000001E-14, 2.1143E-11
DataValue, -1.82, 0.1, -1.8535E-11, 5.3E-14, 9.0000000000000011E-15, 5.3E-14, 9.0000000000000011E-15, 1.8535E-11
DataValue, -1.8, 0.1, -1.6678E-11, 2.5E-14, 2.1000000000000002E-14, 2.5E-14, 2.1000000000000002E-14, 1.6678E-11
DataValue, -1.78, 0.1, -1.5091000000000002E-11, 2.5E-14, -1.0000000000000002E-14, 2.5E-14, 1.0000000000000002E-14, 1.5091000000000002E-11
DataValue, -1.76, 0.1, -1.2635E-11, -1.1E-14, -1.4E-14, 1.1E-14, 1.4E-14, 1.2635E-11
DataValue, -1.74, 0.1, -1.1392000000000002E-11, 1.0000000000000002E-14, 1.1E-14, 1.0000000000000002E-14, 1.1E-14, 1.1392000000000002E-11
DataValue, -1.72, 0.1, -9.8520000000000012E-12, 1E-15, -2E-15, 1E-15, 2E-15, 9.8520000000000012E-12
DataValue, -1.7000000000000002, 0.1, -8.402E-12, -8E-15, -1.2000000000000001E-14, 8E-15, 1.2000000000000001E-14, 8.402E-12
DataValue, -1.6800000000000002, 0.1, 3.2300000000000004E-13, -1.7E-14, -1.9E-14, 1.7E-14, 1.9E-14, 3.2300000000000004E-13
DataValue, -1.6600000000000001, 0.1, 2.9760000000000002E-12, -4.0000000000000006E-14, -7.6100000000000009E-13, 4.0000000000000006E-14, 7.6100000000000009E-13, 2.9760000000000002E-12
DataValue, -1.6400000000000001, 0.1, -4.793E-12, -2.9E-14, -1.8000000000000002E-14, 2.9E-14, 1.8000000000000002E-14, 4.793E-12
DataValue, -1.62, 0.1, -3.6190000000000002E-12, -4.2000000000000004E-14, -2.4000000000000002E-14, 4.2000000000000004E-14, 2.4000000000000002E-14, 3.6190000000000002E-12
DataValue, -1.6, 0.1, -2.598E-12, -5.0000000000000008E-15, -5.43E-13, 5.0000000000000008E-15, 5.43E-13, 2.598E-12
DataValue, -1.58, 0.1, -9.574000000000001E-12, -1.1E-14, -3.0000000000000005E-14, 1.1E-14, 3.0000000000000005E-14, 9.574000000000001E-12
DataValue, -1.56, 0.1, 1.0600000000000001E-12, -3.3000000000000005E-14, -1.6E-14, 3.3000000000000005E-14, 1.6E-14, 1.0600000000000001E-12
DataValue, -1.54, 0.1, 2.603E-12, -2.8E-14, -3.6000000000000004E-14, 2.8E-14, 3.6000000000000004E-14, 2.603E-12
DataValue, -1.52, 0.1, 3.421E-12, -4.9000000000000006E-14, -4.6000000000000006E-14, 4.9000000000000006E-14, 4.6000000000000006E-14, 3.421E-12
DataValue, -1.5, 0.1, -3.2680000000000002E-12, -2.1000000000000002E-14, -1.7E-14, 2.1000000000000002E-14, 1.7E-14, 3.2680000000000002E-12
DataValue, -1.48, 0.1, -9.11E-13, -1E-15, 5.700000000000001E-14, 1E-15, 5.700000000000001E-14, 9.11E-13
DataValue, -1.46, 0.1, 2.098E-11, -7.4E-14, -8.1000000000000008E-14, 7.4E-14, 8.1000000000000008E-14, 2.098E-11
DataValue, -1.4400000000000002, 0.1, 7.971E-12, -5.4000000000000003E-14, -3.8E-14, 5.4000000000000003E-14, 3.8E-14, 7.971E-12
DataValue, -1.4200000000000002, 0.1, 9.64E-12, -2.57E-13, -8.4000000000000008E-14, 2.57E-13, 8.4000000000000008E-14, 9.64E-12
DataValue, -1.4000000000000001, 0.1, 2.515E-12, -3.1E-14, -3.7E-14, 3.1E-14, 3.7E-14, 2.515E-12
DataValue, -1.3800000000000001, 0.1, 3.066E-11, -6.0000000000000009E-14, -9.0000000000000008E-14, 6.0000000000000009E-14, 9.0000000000000008E-14, 3.066E-11
DataValue, -1.36, 0.1, 2.7879000000000003E-11, -9.8000000000000012E-14, -8.7000000000000008E-14, 9.8000000000000012E-14, 8.7000000000000008E-14, 2.7879000000000003E-11
DataValue, -1.34, 0.1, 2.6414E-11, -6.8E-14, -9.9000000000000007E-14, 6.8E-14, 9.9000000000000007E-14, 2.6414E-11
DataValue, -1.32, 0.1, 2.6183000000000003E-11, -8.5E-14, -9.0000000000000008E-14, 8.5E-14, 9.0000000000000008E-14, 2.6183000000000003E-11
DataValue, -1.3, 0.1, 2.6362E-11, 1E-15, -9.0000000000000008E-14, 1E-15, 9.0000000000000008E-14, 2.6362E-11
DataValue, -1.28, 0.1, 2.6217E-11, -8.6000000000000012E-14, -8.0000000000000013E-14, 8.6000000000000012E-14, 8.0000000000000013E-14, 2.6217E-11
DataValue, -1.26, 0.1, 3.4360000000000003E-12, -5.4000000000000003E-14, -1.9E-14, 5.4000000000000003E-14, 1.9E-14, 3.4360000000000003E-12
DataValue, -1.24, 0.1, 5.787E-12, 5.2700000000000008E-13, -6.5E-14, 5.2700000000000008E-13, 6.5E-14, 5.787E-12
DataValue, -1.22, 0.1, 1.8098E-11, -7.9E-14, -6.8E-14, 7.9E-14, 6.8E-14, 1.8098E-11
DataValue, -1.2, 0.1, 7.616E-12, -6.0000000000000009E-14, -4.5000000000000004E-14, 6.0000000000000009E-14, 4.5000000000000004E-14, 7.616E-12
DataValue, -1.1800000000000002, 0.1, 1.0466E-11, -1.1400000000000002E-13, -4.3000000000000006E-14, 1.1400000000000002E-13, 4.3000000000000006E-14, 1.0466E-11
DataValue, -1.1600000000000001, 0.1, 1.1974E-11, -6.8E-14, -5.4000000000000003E-14, 6.8E-14, 5.4000000000000003E-14, 1.1974E-11
DataValue, -1.1400000000000001, 0.1, 1.3669000000000001E-11, -7.8000000000000008E-14, -7.3E-14, 7.8000000000000008E-14, 7.3E-14, 1.3669000000000001E-11
DataValue, -1.12, 0.1, 1.6153E-11, 5.0500000000000007E-13, -9.3000000000000008E-14, 5.0500000000000007E-13, 9.3000000000000008E-14, 1.6153E-11
DataValue, -1.1, 0.1, 3.1037000000000004E-11, -1.16E-13, -9.6000000000000007E-14, 1.16E-13, 9.6000000000000007E-14, 3.1037000000000004E-11
DataValue, -1.08, 0.1, 3.1201E-11, -8.9000000000000012E-14, -9.6000000000000007E-14, 8.9000000000000012E-14, 9.6000000000000007E-14, 3.1201E-11
DataValue, -1.06, 0.1, 3.0582000000000004E-11, -9.8000000000000012E-14, -9.8000000000000012E-14, 9.8000000000000012E-14, 9.8000000000000012E-14, 3.0582000000000004E-11
DataValue, -1.04, 0.1, 3.1236000000000005E-11, -9.8000000000000012E-14, -7.3E-14, 9.8000000000000012E-14, 7.3E-14, 3.1236000000000005E-11
DataValue, -1.02, 0.1, 2.9968E-11, -1.0200000000000001E-13, -7.4E-14, 1.0200000000000001E-13, 7.4E-14, 2.9968E-11
DataValue, -1, 0.1, 3.0413E-11, -9.5000000000000012E-14, -7.4E-14, 9.5000000000000012E-14, 7.4E-14, 3.0413E-11
DataValue, -0.98000000000000009, 0.1, 3.0335000000000004E-11, -1.0200000000000001E-13, -8.3000000000000012E-14, 1.0200000000000001E-13, 8.3000000000000012E-14, 3.0335000000000004E-11
DataValue, -0.96000000000000008, 0.1, 3.0601000000000005E-11, -7.7E-14, -8.8E-14, 7.7E-14, 8.8E-14, 3.0601000000000005E-11
DataValue, -0.94000000000000006, 0.1, 3.0624E-11, -1.17E-13, -8.3000000000000012E-14, 1.17E-13, 8.3000000000000012E-14, 3.0624E-11
DataValue, -0.92, 0.1, 3.1473E-11, -8.7000000000000008E-14, -6.6000000000000009E-14, 8.7000000000000008E-14, 6.6000000000000009E-14, 3.1473E-11
DataValue, -0.9, 0.1, 5.5666000000000005E-11, -1.1300000000000001E-13, -1.19E-13, 1.1300000000000001E-13, 1.19E-13, 5.5666000000000005E-11
DataValue, -0.88, 0.1, 4.8297000000000004E-11, -4.97E-13, -5.2000000000000006E-14, 4.97E-13, 5.2000000000000006E-14, 4.8297000000000004E-11
DataValue, -0.86, 0.1, 2.4812E-11, -1.0100000000000001E-13, -4.3000000000000006E-14, 1.0100000000000001E-13, 4.3000000000000006E-14, 2.4812E-11
DataValue, -0.84000000000000008, 0.1, 5.0042000000000007E-11, -1.1300000000000001E-13, -9.7E-14, 1.1300000000000001E-13, 9.7E-14, 5.0042000000000007E-11
DataValue, -0.82000000000000006, 0.1, 4.4655000000000006E-11, -1.3900000000000001E-13, -5.8E-14, 1.3900000000000001E-13, 5.8E-14, 4.4655000000000006E-11
DataValue, -0.8, 0.1, 2.5378000000000003E-11, -8.6000000000000012E-14, -7.1E-14, 8.6000000000000012E-14, 7.1E-14, 2.5378000000000003E-11
DataValue, -0.78, 0.1, 2.7854E-11, -1.0700000000000001E-13, -7.4E-14, 1.0700000000000001E-13, 7.4E-14, 2.7854E-11
DataValue, -0.76, 0.1, 2.9512E-11, -8.3000000000000012E-14, -5.8E-14, 8.3000000000000012E-14, 5.8E-14, 2.9512E-11
DataValue, -0.74, 0.1, 1.8003000000000002E-11, -6.2E-14, 4.86E-13, 6.2E-14, 4.86E-13, 1.8003000000000002E-11
DataValue, -0.72000000000000008, 0.1, 3.783E-11, -1.1300000000000001E-13, -9.3000000000000008E-14, 1.1300000000000001E-13, 9.3000000000000008E-14, 3.783E-11
DataValue, -0.70000000000000007, 0.1, 3.8067000000000004E-11, -8.8E-14, -5.6E-14, 8.8E-14, 5.6E-14, 3.8067000000000004E-11
DataValue, -0.68, 0.1, 3.5838000000000005E-11, -1.18E-13, -8.4000000000000008E-14, 1.18E-13, 8.4000000000000008E-14, 3.5838000000000005E-11
DataValue, -0.66, 0.1, 3.5879E-11, -1.0100000000000001E-13, -6.1E-14, 1.0100000000000001E-13, 6.1E-14, 3.5879E-11
DataValue, -0.64, 0.1, 4.2895000000000004E-11, -1.4E-13, -1.3900000000000001E-13, 1.4E-13, 1.3900000000000001E-13, 4.2895000000000004E-11
DataValue, -0.62, 0.1, 5.5506E-11, -1.16E-13, -7.6700000000000006E-13, 1.16E-13, 7.6700000000000006E-13, 5.5506E-11
DataValue, -0.6, 0.1, 2.9032000000000003E-11, -9.5000000000000012E-14, -6.8E-14, 9.5000000000000012E-14, 6.8E-14, 2.9032000000000003E-11
DataValue, -0.58000000000000007, 0.1, 2.5928000000000003E-11, -5.1000000000000004E-14, -7.2000000000000009E-14, 5.1000000000000004E-14, 7.2000000000000009E-14, 2.5928000000000003E-11
DataValue, -0.56, 0.1, 1.9284000000000002E-11, -7E-14, 5.88E-13, 7E-14, 5.88E-13, 1.9284000000000002E-11
DataValue, -0.54, 0.1, 3.9362000000000005E-11, -8.8E-14, -9.4E-14, 8.8E-14, 9.4E-14, 3.9362000000000005E-11
DataValue, -0.52, 0.1, 3.1139E-11, -6.9000000000000009E-14, -4.5000000000000004E-14, 6.9000000000000009E-14, 4.5000000000000004E-14, 3.1139E-11
DataValue, -0.5, 0.1, 2.3691000000000003E-11, -7.8000000000000008E-14, -1.1500000000000002E-13, 7.8000000000000008E-14, 1.1500000000000002E-13, 2.3691000000000003E-11
DataValue, -0.48000000000000004, 0.1, 2.6856000000000003E-11, -7.8000000000000008E-14, -5.8E-14, 7.8000000000000008E-14, 5.8E-14, 2.6856000000000003E-11
DataValue, -0.46, 0.1, 2.9301E-11, -8.0000000000000013E-14, -6.1E-14, 8.0000000000000013E-14, 6.1E-14, 2.9301E-11
DataValue, -0.44, 0.1, 3.1642000000000004E-11, -7.4E-14, 4.91E-13, 7.4E-14, 4.91E-13, 3.1642000000000004E-11
DataValue, -0.42000000000000004, 0.1, 5.1011E-11, -1.2000000000000002E-13, -1.1500000000000002E-13, 1.2000000000000002E-13, 1.1500000000000002E-13, 5.1011E-11
DataValue, -0.4, 0.1, 4.6731000000000005E-11, -1.1000000000000001E-13, -9.6000000000000007E-14, 1.1000000000000001E-13, 9.6000000000000007E-14, 4.6731000000000005E-11
DataValue, -0.38, 0.1, 4.5158000000000004E-11, -9.0000000000000008E-14, -9.8000000000000012E-14, 9.0000000000000008E-14, 9.8000000000000012E-14, 4.5158000000000004E-11
DataValue, -0.36000000000000004, 0.1, 4.3511E-11, -7.6E-14, -1.24E-13, 7.6E-14, 1.24E-13, 4.3511E-11
DataValue, -0.34, 0.1, 6.4127E-11, -9.1E-14, -1.75E-13, 9.1E-14, 1.75E-13, 6.4127E-11
DataValue, -0.32, 0.1, 5.835000000000001E-11, -2.6000000000000003E-14, -7.1700000000000008E-13, 2.6000000000000003E-14, 7.1700000000000008E-13, 5.835000000000001E-11
DataValue, -0.3, 0.1, 3.3931E-11, 1.09E-13, -2.5E-13, 1.09E-13, 2.5E-13, 3.3931E-11
DataValue, -0.28, 0.1, 5.6835000000000003E-11, 2.72E-13, -4.8200000000000007E-13, 2.72E-13, 4.8200000000000007E-13, 5.6835000000000003E-11
DataValue, -0.26, 0.1, 5.4079000000000007E-11, 7.05E-13, -8.72E-13, 7.05E-13, 8.72E-13, 5.4079000000000007E-11
DataValue, -0.24000000000000002, 0.1, 5.0323000000000007E-11, 1.5070000000000001E-12, -1.675E-12, 1.5070000000000001E-12, 1.675E-12, 5.0323000000000007E-11
DataValue, -0.22, 0.1, 4.8935000000000003E-11, 3.1690000000000003E-12, -3.3450000000000004E-12, 3.1690000000000003E-12, 3.3450000000000004E-12, 4.8935000000000003E-11
DataValue, -0.2, 0.1, 4.7118000000000003E-11, 6.5690000000000008E-12, -6.726E-12, 6.5690000000000008E-12, 6.726E-12, 4.7118000000000003E-11
DataValue, -0.18000000000000002, 0.1, 1.4945E-11, 1.3472E-11, -1.353E-11, 1.3472E-11, 1.353E-11, 1.4945E-11
DataValue, -0.16, 0.1, 3.7118000000000006E-11, 2.7506000000000002E-11, -2.7510000000000004E-11, 2.7506000000000002E-11, 2.7510000000000004E-11, 3.7118000000000006E-11
DataValue, -0.14, 0.1, 3.8792E-11, 5.5582E-11, -5.5823000000000007E-11, 5.5582E-11, 5.5823000000000007E-11, 3.8792E-11
DataValue, -0.12000000000000001, 0.1, 2.3882000000000003E-11, 1.14063E-10, -1.13599E-10, 1.14063E-10, 1.13599E-10, 2.3882000000000003E-11
DataValue, -0.1, 0.1, 4.7949000000000004E-11, 2.3160200000000002E-10, -2.30832E-10, 2.3160200000000002E-10, 2.30832E-10, 4.7949000000000004E-11
DataValue, -0.08, 0.1, 4.7209E-11, 4.6768900000000006E-10, -4.6624300000000006E-10, 4.6768900000000006E-10, 4.6624300000000006E-10, 4.7209E-11
DataValue, -0.060000000000000005, 0.1, 4.7498000000000006E-11, 9.42707E-10, -9.39673E-10, 9.42707E-10, 9.39673E-10, 4.7498000000000006E-11
DataValue, -0.04, 0.1, 7.3485E-11, 1.87056E-09, -1.86244E-09, 1.87056E-09, 1.86244E-09, 7.3485E-11
DataValue, -0.02, 0.1, 6.057E-11, 3.65128E-09, -3.65788E-09, 3.65128E-09, 3.65788E-09, 6.057E-11
DataValue, 0, 0.1, 3.8109E-11, 7.01987E-09, -7.01529E-09, 7.01987E-09, 7.01529E-09, 3.8109E-11
DataValue, 0.02, 0.1, 4.1065E-11, 1.3031899999999998E-08, -1.29971E-08, 1.3031899999999998E-08, 1.29971E-08, 4.1065E-11
DataValue, 0.04, 0.1, 4.4370000000000004E-11, 2.3394099999999996E-08, -2.3336799999999998E-08, 2.3394099999999996E-08, 2.3336799999999998E-08, 4.4370000000000004E-11
DataValue, 0.060000000000000005, 0.1, 4.9625E-11, 4.0303899999999996E-08, -4.02754E-08, 4.0303899999999996E-08, 4.02754E-08, 4.9625E-11
DataValue, 0.08, 0.1, 5.4547E-11, 6.67551E-08, -6.6648299999999992E-08, 6.67551E-08, 6.6648299999999992E-08, 5.4547E-11
