
SetupTitle, ITO_IdVG
PrimitiveTest, I/V Sweep
TestParameter, Context.MainFrame, 4156C
TestParameter, Channel.UnitType, SMU, SMU, SMU
TestParameter, Channel.Unit, SMU3:HR, SMU1:HR, SMU4:HR
TestParameter, Channel.IName, Ig, Id, Is
TestParameter, Channel.VName, Vg, Vd, Vs
TestParameter, Channel.Mode, V, V, COMMON
TestParameter, Channel.Func, VAR1, CONST, CONST
TestParameter, Channel.Index, 
TestParameter, Channel.Time, 
TestParameter, Measurement.Port.Unit, SMU3:HR, SMU1:HR, SMU4:HR
TestParameter, Measurement.Port.SeriesResistor, NONE, NONE, NONE
TestParameter, Measurement.Port.Filter, ON, ON, ON
TestParameter, Measurement.Primary.Locus, Double
TestParameter, Measurement.Primary.Scale, LINEAR
TestParameter, Measurement.Primary.Start, -2
TestParameter, Measurement.Primary.Stop, 2
TestParameter, Measurement.Primary.Step, 0.02
TestParameter, Measurement.Primary.Compliance, 0.1
TestParameter, Measurement.Primary.PowerCompliance, 0
TestParameter, Measurement.Aborting.Condition, CONTINUE AT ANY
TestParameter, Measurement.PostOutput.Value, START
TestParameter, Measurement.PostOutput.Retention, OFF
TestParameter, Measurement.Bias.Source, -2, 0.1, 0
TestParameter, Measurement.Bias.Compliance, 0.1, 0.1, 0.1
TestParameter, Measurement.Monitor.Unit, SMU3:HR, SMU1:HR, SMU4:HR
TestParameter, Measurement.Monitor.Adc, HR ADC, HR ADC, HR ADC
TestParameter, Measurement.Monitor.RangingMode, LIMITED, LIMITED, LIMITED
TestParameter, Measurement.Monitor.RangeBoundary, 1nA, 1nA, 1nA
TestParameter, Measurement.Monitor.RangeRating, BY FULL RANGE, BY FULL RANGE, BY FULL RANGE
TestParameter, Measurement.Monitor.RangeRatingCoeff, 50, 50, 50
TestParameter, Measurement.Timing.Hold, 0
TestParameter, Measurement.Timing.Delay, 0.05
TestParameter, Measurement.Adc.HighResolution.AutoZero, OFF
TestParameter, Measurement.Adc.HighResolution.Mode, AUTO
TestParameter, Measurement.Adc.HighResolution.Coeff, 1
TestParameter, Measurement.Ag16440ASelector.SemiconductorRelay.Channel1, DEFAULT
TestParameter, Measurement.Ag16440ASelector.SemiconductorRelay.Channel3, DEFAULT
TestParameter, Function.User.Name, absId, absIs, absIg
TestParameter, Function.User.Unit, A, A, A
TestParameter, Function.User.Definition, abs(Id), abs(Is), abs(Ig)
TestParameter, Output.Graph.Enabled, true
TestParameter, Output.Graph.XAxis.Data, Vg
TestParameter, Output.Graph.XAxis.Scale, Linear
TestParameter, Output.Graph.XAxis.Left, -2
TestParameter, Output.Graph.XAxis.Right, 2
TestParameter, Output.Graph.YAxis.Data, absId, absIs, absIg
TestParameter, Output.Graph.YAxis.Scale, Log, Log, Log
TestParameter, Output.Graph.YAxis.Bottom, 1E-15, 1E-15, 1E-15
TestParameter, Output.Graph.YAxis.Top, 0.1, 0.1, 0.1
TestParameter, Output.Graph.YAxis.Group, , , 
TestParameter, Output.List.Data, Vg, Vd, Id, Is, Ig
TestParameter, AutoAnalysis.Interpolation, false
TestParameter, AutoAnalysis.Line1.Enabled, false
TestParameter, AutoAnalysis.Line1.Type, 1
TestParameter, AutoAnalysis.Line1.Fix, True
TestParameter, AutoAnalysis.Line1.YAxis, 0
TestParameter, AutoAnalysis.Line1.Point1.Type, 0
TestParameter, AutoAnalysis.Line1.Point1.XY.X, 
TestParameter, AutoAnalysis.Line1.Point1.XY.Y, 
TestParameter, AutoAnalysis.Line1.Point1.Data.Var, 
TestParameter, AutoAnalysis.Line1.Point1.Data.Condition, 
TestParameter, AutoAnalysis.Line1.Point1.Data.Start, false
TestParameter, AutoAnalysis.Line1.Point1.Data.StartVar, 
TestParameter, AutoAnalysis.Line1.Point1.Data.StartCondition, 
TestParameter, AutoAnalysis.Line1.Point2.Type, 0
TestParameter, AutoAnalysis.Line1.Point2.XY.X, 
TestParameter, AutoAnalysis.Line1.Point2.XY.Y, 
TestParameter, AutoAnalysis.Line1.Point2.Data.Var, 
TestParameter, AutoAnalysis.Line1.Point2.Data.Condition, 
TestParameter, AutoAnalysis.Line1.Point2.Data.Start, false
TestParameter, AutoAnalysis.Line1.Point2.Data.StartVar, 
TestParameter, AutoAnalysis.Line1.Point2.Data.StartCondition, 
TestParameter, AutoAnalysis.Line1.GradientExpr, 0
TestParameter, AutoAnalysis.Line2.Enabled, false
TestParameter, AutoAnalysis.Line2.Type, 1
TestParameter, AutoAnalysis.Line2.Fix, True
TestParameter, AutoAnalysis.Line2.YAxis, 0
TestParameter, AutoAnalysis.Line2.Point1.Type, 0
TestParameter, AutoAnalysis.Line2.Point1.XY.X, 
TestParameter, AutoAnalysis.Line2.Point1.XY.Y, 
TestParameter, AutoAnalysis.Line2.Point1.Data.Var, 
TestParameter, AutoAnalysis.Line2.Point1.Data.Condition, 
TestParameter, AutoAnalysis.Line2.Point1.Data.Start, false
TestParameter, AutoAnalysis.Line2.Point1.Data.StartVar, 
TestParameter, AutoAnalysis.Line2.Point1.Data.StartCondition, 
TestParameter, AutoAnalysis.Line2.Point2.Type, 0
TestParameter, AutoAnalysis.Line2.Point2.XY.X, 
TestParameter, AutoAnalysis.Line2.Point2.XY.Y, 
TestParameter, AutoAnalysis.Line2.Point2.Data.Var, 
TestParameter, AutoAnalysis.Line2.Point2.Data.Condition, 
TestParameter, AutoAnalysis.Line2.Point2.Data.Start, false
TestParameter, AutoAnalysis.Line2.Point2.Data.StartVar, 
TestParameter, AutoAnalysis.Line2.Point2.Data.StartCondition, 
TestParameter, AutoAnalysis.Line2.GradientExpr, 0
TestParameter, AutoAnalysis.Marker.Enabled, false
TestParameter, AutoAnalysis.Marker.Data.Var, 
TestParameter, AutoAnalysis.Marker.Data.Condition, 
TestParameter, AutoAnalysis.Marker.Data.Start, false
TestParameter, AutoAnalysis.Marker.Data.StartVar, 
TestParameter, AutoAnalysis.Marker.Data.StartCondition, 
MetaData, TestRecord.EntryPoint, true
MetaData, TestRecord.RecordTime, 12/18/2022 15:46:38
MetaData, TestRecord.TestTarget, 
MetaData, TestRecord.IterationIndex, 21
MetaData, TestRecord.Preservation, true
MetaData, TestRecord.Flag, 
MetaData, TestRecord.Remarks, T=20C 2R sample
MetaData, TestRecord.LinkKey, ee086649-55fc-4444-89f4-1183b887af5f
Dimension1, 402, 402, 402, 402, 402, 402, 402, 402
Dimension2, 1, 1, 1, 1, 1, 1, 1, 1
DataName, Vg, Vd, Ig, Id, Is, absId, absIs, absIg
DataValue, -2, 0.1, -2.53294E-10, 4.4300000000000003E-13, 3.4700000000000004E-13, 4.4300000000000003E-13, 3.4700000000000004E-13, 2.53294E-10
DataValue, -1.9800000000000002, 0.1, -8.1139000000000008E-11, 2.2500000000000003E-13, 1.99E-13, 2.2500000000000003E-13, 1.99E-13, 8.1139000000000008E-11
DataValue, -1.9600000000000002, 0.1, -5.8974E-11, 1.81E-13, 6.7E-14, 1.81E-13, 6.7E-14, 5.8974E-11
DataValue, -1.9400000000000002, 0.1, -4.8194000000000006E-11, 1.99E-13, 1.0800000000000001E-13, 1.99E-13, 1.0800000000000001E-13, 4.8194000000000006E-11
DataValue, -1.9200000000000002, 0.1, -4.2331000000000006E-11, 1.4900000000000002E-13, 8.8E-14, 1.4900000000000002E-13, 8.8E-14, 4.2331000000000006E-11
DataValue, -1.9000000000000001, 0.1, -3.6891000000000003E-11, 1.18E-13, 9.0000000000000011E-15, 1.18E-13, 9.0000000000000011E-15, 3.6891000000000003E-11
DataValue, -1.8800000000000001, 0.1, -3.3418E-11, 6.2E-14, 7.2000000000000009E-14, 6.2E-14, 7.2000000000000009E-14, 3.3418E-11
DataValue, -1.86, 0.1, -1.9336000000000002E-11, 7E-15, 1.0000000000000002E-14, 7E-15, 1.0000000000000002E-14, 1.9336000000000002E-11
DataValue, -1.84, 0.1, -1.7965000000000003E-11, 2.1000000000000002E-14, -7E-15, 2.1000000000000002E-14, 7E-15, 1.7965000000000003E-11
DataValue, -1.82, 0.1, -1.7938E-11, -3.0000000000000002E-15, 5.0000000000000008E-15, 3.0000000000000002E-15, 5.0000000000000008E-15, 1.7938E-11
DataValue, -1.8, 0.1, -2.8910000000000003E-11, 6.0000000000000005E-15, 3.3000000000000005E-14, 6.0000000000000005E-15, 3.3000000000000005E-14, 2.8910000000000003E-11
DataValue, -1.78, 0.1, -2.4891000000000003E-11, 1.8000000000000002E-14, 6.0000000000000005E-15, 1.8000000000000002E-14, 6.0000000000000005E-15, 2.4891000000000003E-11
DataValue, -1.76, 0.1, -2.1182000000000002E-11, -1.0000000000000002E-14, 7E-15, 1.0000000000000002E-14, 7E-15, 2.1182000000000002E-11
DataValue, -1.74, 0.1, -9.176E-12, -2.7000000000000002E-14, -3.1E-14, 2.7000000000000002E-14, 3.1E-14, 9.176E-12
DataValue, -1.72, 0.1, -8.3280000000000009E-12, -3.2E-14, -4.8000000000000004E-14, 3.2E-14, 4.8000000000000004E-14, 8.3280000000000009E-12
DataValue, -1.7000000000000002, 0.1, -1.595E-11, -5.3E-14, -1.7E-14, 5.3E-14, 1.7E-14, 1.595E-11
DataValue, -1.6800000000000002, 0.1, -5.382E-12, -3.6000000000000004E-14, -5.3E-14, 3.6000000000000004E-14, 5.3E-14, 5.382E-12
DataValue, -1.6600000000000001, 0.1, -4.0560000000000005E-12, -5.4000000000000003E-14, -3.5E-14, 5.4000000000000003E-14, 3.5E-14, 4.0560000000000005E-12
DataValue, -1.6400000000000001, 0.1, -2.8430000000000003E-12, -3.5E-14, -3.6000000000000004E-14, 3.5E-14, 3.6000000000000004E-14, 2.8430000000000003E-12
DataValue, -1.62, 0.1, -9.4640000000000009E-12, -3.5E-14, -3.8E-14, 3.5E-14, 3.8E-14, 9.4640000000000009E-12
DataValue, -1.6, 0.1, -7.4480000000000014E-12, 4.95E-13, -6.2E-14, 4.95E-13, 6.2E-14, 7.4480000000000014E-12
DataValue, -1.58, 0.1, 1.4010000000000002E-12, -6.1E-14, -6.3000000000000009E-14, 6.1E-14, 6.3000000000000009E-14, 1.4010000000000002E-12
DataValue, -1.56, 0.1, -5.5830000000000007E-12, -5.1000000000000004E-14, -5E-14, 5.1000000000000004E-14, 5E-14, 5.5830000000000007E-12
DataValue, -1.54, 0.1, -3.9010000000000004E-12, 4.97E-13, -4.8000000000000004E-14, 4.97E-13, 4.8000000000000004E-14, 3.9010000000000004E-12
DataValue, -1.52, 0.1, 5.345E-12, -4.9000000000000006E-14, -5.2000000000000006E-14, 4.9000000000000006E-14, 5.2000000000000006E-14, 5.345E-12
DataValue, -1.5, 0.1, -1.977E-12, -4.0000000000000006E-14, -6.7E-14, 4.0000000000000006E-14, 6.7E-14, 1.977E-12
DataValue, -1.48, 0.1, 1.0700000000000001E-13, 5.18E-13, -5E-14, 5.18E-13, 5E-14, 1.0700000000000001E-13
DataValue, -1.46, 0.1, 1.0071000000000001E-11, -6.8E-14, -8.4000000000000008E-14, 6.8E-14, 8.4000000000000008E-14, 1.0071000000000001E-11
DataValue, -1.4400000000000002, 0.1, 1.1404000000000001E-11, -8.7000000000000008E-14, -7.6E-14, 8.7000000000000008E-14, 7.6E-14, 1.1404000000000001E-11
DataValue, -1.4200000000000002, 0.1, 1.2088000000000001E-11, 5.69E-13, -1.1500000000000002E-13, 5.69E-13, 1.1500000000000002E-13, 1.2088000000000001E-11
DataValue, -1.4000000000000001, 0.1, 2.6368E-11, -1.2100000000000002E-13, -1.18E-13, 1.2100000000000002E-13, 1.18E-13, 2.6368E-11
DataValue, -1.3800000000000001, 0.1, 2.52E-11, -1.18E-13, -2.96E-13, 1.18E-13, 2.96E-13, 2.52E-11
DataValue, -1.36, 0.1, 1.3009000000000002E-11, -2.5200000000000004E-13, 9.1E-14, 2.5200000000000004E-13, 9.1E-14, 1.3009000000000002E-11
DataValue, -1.34, 0.1, 1.3213E-11, -9.2000000000000012E-14, -7.7E-14, 9.2000000000000012E-14, 7.7E-14, 1.3213E-11
DataValue, -1.32, 0.1, 4.6550000000000007E-12, -6.8E-14, -5.3E-14, 6.8E-14, 5.3E-14, 4.6550000000000007E-12
DataValue, -1.3, 0.1, 7.2420000000000008E-12, -1.03E-13, -6.3000000000000009E-14, 1.03E-13, 6.3000000000000009E-14, 7.2420000000000008E-12
DataValue, -1.28, 0.1, 9.1710000000000012E-12, -5.5000000000000005E-14, -5.4000000000000003E-14, 5.5000000000000005E-14, 5.4000000000000003E-14, 9.1710000000000012E-12
DataValue, -1.26, 0.1, 1.1196E-11, -8.0000000000000013E-14, -6.6000000000000009E-14, 8.0000000000000013E-14, 6.6000000000000009E-14, 1.1196E-11
DataValue, -1.24, 0.1, 1.3614E-11, -7.8800000000000008E-13, -4.7E-14, 7.8800000000000008E-13, 4.7E-14, 1.3614E-11
DataValue, -1.22, 0.1, 4.667E-12, -7.1E-14, -4.2000000000000004E-14, 7.1E-14, 4.2000000000000004E-14, 4.667E-12
DataValue, -1.2, 0.1, 1.8982000000000003E-11, -1.1400000000000002E-13, -7.9E-14, 1.1400000000000002E-13, 7.9E-14, 1.8982000000000003E-11
DataValue, -1.1800000000000002, 0.1, 2.0768000000000002E-11, -1.1300000000000001E-13, -7.6E-14, 1.1300000000000001E-13, 7.6E-14, 2.0768000000000002E-11
DataValue, -1.1600000000000001, 0.1, 2.1127000000000002E-11, -1.0100000000000001E-13, -7E-14, 1.0100000000000001E-13, 7E-14, 2.1127000000000002E-11
DataValue, -1.1400000000000001, 0.1, 6.1155000000000008E-11, -1.3900000000000001E-13, -1.7800000000000002E-13, 1.3900000000000001E-13, 1.7800000000000002E-13, 6.1155000000000008E-11
DataValue, -1.12, 0.1, 4.8616000000000007E-11, -1.8000000000000002E-13, -7E-14, 1.8000000000000002E-13, 7E-14, 4.8616000000000007E-11
DataValue, -1.1, 0.1, 1.4793E-11, -8.6000000000000012E-14, 2.0400000000000001E-13, 8.6000000000000012E-14, 2.0400000000000001E-13, 1.4793E-11
DataValue, -1.08, 0.1, 3.1879E-11, -1.03E-13, -7.7E-14, 1.03E-13, 7.7E-14, 3.1879E-11
DataValue, -1.06, 0.1, 3.0669E-11, -1.16E-13, -9.9000000000000007E-14, 1.16E-13, 9.9000000000000007E-14, 3.0669E-11
DataValue, -1.04, 0.1, 2.9727000000000004E-11, -9.2000000000000012E-14, 4.67E-13, 9.2000000000000012E-14, 4.67E-13, 2.9727000000000004E-11
DataValue, -1.02, 0.1, 5.1012000000000004E-11, -1.2000000000000002E-13, -1.22E-13, 1.2000000000000002E-13, 1.22E-13, 5.1012000000000004E-11
DataValue, -1, 0.1, 4.1605E-11, -1.1500000000000002E-13, -6.1E-14, 1.1500000000000002E-13, 6.1E-14, 4.1605E-11
DataValue, -0.98000000000000009, 0.1, 2.4479000000000003E-11, -8.1000000000000008E-14, -6.79E-13, 8.1000000000000008E-14, 6.79E-13, 2.4479000000000003E-11
DataValue, -0.96000000000000008, 0.1, 1.3698E-11, -8.2E-14, -6.2E-14, 8.2E-14, 6.2E-14, 1.3698E-11
DataValue, -0.94000000000000006, 0.1, 1.9761E-11, -9.8000000000000012E-14, -8.0000000000000013E-14, 9.8000000000000012E-14, 8.0000000000000013E-14, 1.9761E-11
DataValue, -0.92, 0.1, 3.3031000000000003E-11, -1.06E-13, -1.4500000000000001E-13, 1.06E-13, 1.4500000000000001E-13, 3.3031000000000003E-11
DataValue, -0.9, 0.1, 3.1376000000000004E-11, -1.09E-13, -9.6000000000000007E-14, 1.09E-13, 9.6000000000000007E-14, 3.1376000000000004E-11
DataValue, -0.88, 0.1, 3.2287000000000006E-11, -9.8000000000000012E-14, -9.0000000000000008E-14, 9.8000000000000012E-14, 9.0000000000000008E-14, 3.2287000000000006E-11
DataValue, -0.86, 0.1, 3.2117E-11, -8.5E-14, -9.0000000000000008E-14, 8.5E-14, 9.0000000000000008E-14, 3.2117E-11
DataValue, -0.84000000000000008, 0.1, 3.3658000000000005E-11, -1.0400000000000001E-13, -9.5000000000000012E-14, 1.0400000000000001E-13, 9.5000000000000012E-14, 3.3658000000000005E-11
DataValue, -0.82000000000000006, 0.1, 2.722E-11, -9.3000000000000008E-14, -7.4E-14, 9.3000000000000008E-14, 7.4E-14, 2.722E-11
DataValue, -0.8, 0.1, 2.0537E-11, -6.7E-14, 6.1900000000000009E-13, 6.7E-14, 6.1900000000000009E-13, 2.0537E-11
DataValue, -0.78, 0.1, 4.0829E-11, -1.3800000000000002E-13, -1.1400000000000002E-13, 1.3800000000000002E-13, 1.1400000000000002E-13, 4.0829E-11
DataValue, -0.76, 0.1, 2.9283E-11, -6.4E-14, -7.9E-14, 6.4E-14, 7.9E-14, 2.9283E-11
DataValue, -0.74, 0.1, 2.2341000000000003E-11, -8.4000000000000008E-14, 5.46E-13, 8.4000000000000008E-14, 5.46E-13, 2.2341000000000003E-11
DataValue, -0.72000000000000008, 0.1, 4.2418E-11, -9.1E-14, -1E-13, 9.1E-14, 1E-13, 4.2418E-11
DataValue, -0.70000000000000007, 0.1, 2.1816000000000003E-11, -8.2E-14, -3.7E-14, 8.2E-14, 3.7E-14, 2.1816000000000003E-11
DataValue, -0.68, 0.1, 1.3874000000000002E-11, -7E-14, 4.63E-13, 7E-14, 4.63E-13, 1.3874000000000002E-11
DataValue, -0.66, 0.1, 2.9709000000000004E-11, -1E-13, -8.1000000000000008E-14, 1E-13, 8.1000000000000008E-14, 2.9709000000000004E-11
DataValue, -0.64, 0.1, 4.6342E-11, -1.19E-13, -1.0500000000000001E-13, 1.19E-13, 1.0500000000000001E-13, 4.6342E-11
DataValue, -0.62, 0.1, 4.8276000000000005E-11, -1.12E-13, 5.43E-13, 1.12E-13, 5.43E-13, 4.8276000000000005E-11
DataValue, -0.6, 0.1, 7.1289000000000011E-11, -1.47E-13, -1.25E-13, 1.47E-13, 1.25E-13, 7.1289000000000011E-11
DataValue, -0.58000000000000007, 0.1, 5.8171000000000006E-11, -1.16E-13, -1.1000000000000001E-13, 1.16E-13, 1.1000000000000001E-13, 5.8171000000000006E-11
DataValue, -0.56, 0.1, 5.0382E-11, -1.22E-13, -5.34E-13, 1.22E-13, 5.34E-13, 5.0382E-11
DataValue, -0.54, 0.1, 2.7594E-11, -6.3000000000000009E-14, -4.9000000000000006E-14, 6.3000000000000009E-14, 4.9000000000000006E-14, 2.7594E-11
DataValue, -0.52, 0.1, 4.8607E-11, -1.19E-13, -1.0700000000000001E-13, 1.19E-13, 1.0700000000000001E-13, 4.8607E-11
DataValue, -0.5, 0.1, 4.9628E-11, -9.9000000000000007E-14, -5.66E-13, 9.9000000000000007E-14, 5.66E-13, 4.9628E-11
DataValue, -0.48000000000000004, 0.1, 1.4465000000000002E-11, -4.5000000000000004E-14, -4.5000000000000004E-14, 4.5000000000000004E-14, 4.5000000000000004E-14, 1.4465000000000002E-11
DataValue, -0.46, 0.1, 3.5265E-11, -7.7E-14, -5.6E-14, 7.7E-14, 5.6E-14, 3.5265E-11
DataValue, -0.44, 0.1, 3.6982E-11, -6.5E-14, -7.4E-14, 6.5E-14, 7.4E-14, 3.6982E-11
DataValue, -0.42000000000000004, 0.1, 3.67E-11, -8.2E-14, -7.6E-14, 8.2E-14, 7.6E-14, 3.67E-11
DataValue, -0.4, 0.1, 3.7634000000000005E-11, -6.6000000000000009E-14, -9.6000000000000007E-14, 6.6000000000000009E-14, 9.6000000000000007E-14, 3.7634000000000005E-11
DataValue, -0.38, 0.1, 3.8087E-11, -6.8E-14, -7.4E-14, 6.8E-14, 7.4E-14, 3.8087E-11
DataValue, -0.36000000000000004, 0.1, 3.8001E-11, -6.4E-14, -8.2E-14, 6.4E-14, 8.2E-14, 3.8001E-11
DataValue, -0.34, 0.1, 2.1271E-11, -2.9E-14, -4.4E-14, 2.9E-14, 4.4E-14, 2.1271E-11
DataValue, -0.32, 0.1, 2.4605000000000002E-11, 3.0000000000000003E-13, -5.5000000000000005E-14, 3.0000000000000003E-13, 5.5000000000000005E-14, 2.4605000000000002E-11
DataValue, -0.3, 0.1, 4.4949E-11, -2.7000000000000002E-14, -1.34E-13, 2.7000000000000002E-14, 1.34E-13, 4.4949E-11
DataValue, -0.28, 0.1, 2.4933E-11, 7.7E-14, -1.54E-13, 7.7E-14, 1.54E-13, 2.4933E-11
DataValue, -0.26, 0.1, 2.8872000000000004E-11, 1.83E-13, -3.1200000000000003E-13, 1.83E-13, 3.1200000000000003E-13, 2.8872000000000004E-11
DataValue, -0.24000000000000002, 0.1, 3.1221000000000005E-11, 4.8000000000000008E-13, -5.88E-13, 4.8000000000000008E-13, 5.88E-13, 3.1221000000000005E-11
DataValue, -0.22, 0.1, 5.7356000000000007E-11, 1.0500000000000002E-12, -1.2190000000000002E-12, 1.0500000000000002E-12, 1.2190000000000002E-12, 5.7356000000000007E-11
DataValue, -0.2, 0.1, 5.3398000000000007E-11, 2.2740000000000002E-12, -2.431E-12, 2.2740000000000002E-12, 2.431E-12, 5.3398000000000007E-11
DataValue, -0.18000000000000002, 0.1, 4.9135000000000007E-11, 4.888E-12, -4.99E-12, 4.888E-12, 4.99E-12, 4.9135000000000007E-11
DataValue, -0.16, 0.1, 4.7110000000000006E-11, 1.0369000000000002E-11, -1.0463E-11, 1.0369000000000002E-11, 1.0463E-11, 4.7110000000000006E-11
DataValue, -0.14, 0.1, 4.6427E-11, 2.1820000000000002E-11, -2.1814000000000002E-11, 2.1820000000000002E-11, 2.1814000000000002E-11, 4.6427E-11
DataValue, -0.12000000000000001, 0.1, 4.5245E-11, 4.5828E-11, -4.5884E-11, 4.5828E-11, 4.5884E-11, 4.5245E-11
DataValue, -0.1, 0.1, 4.4884000000000006E-11, 9.628E-11, -9.5980000000000014E-11, 9.628E-11, 9.5980000000000014E-11, 4.4884000000000006E-11
DataValue, -0.08, 0.1, 4.4743000000000005E-11, 2.0088800000000003E-10, -2.0037300000000003E-10, 2.0088800000000003E-10, 2.0037300000000003E-10, 4.4743000000000005E-11
DataValue, -0.060000000000000005, 0.1, 4.5659000000000005E-11, 4.1682300000000004E-10, -4.1576300000000005E-10, 4.1682300000000004E-10, 4.1576300000000005E-10, 4.5659000000000005E-11
DataValue, -0.04, 0.1, 4.5109000000000004E-11, 8.5373700000000007E-10, -8.5203900000000008E-10, 8.5373700000000007E-10, 8.5203900000000008E-10, 4.5109000000000004E-11
DataValue, -0.02, 0.1, 4.4488E-11, 1.7101E-09, -1.70119E-09, 1.7101E-09, 1.70119E-09, 4.4488E-11
DataValue, 0, 0.1, 4.4409E-11, 3.35036E-09, -3.34924E-09, 3.35036E-09, 3.34924E-09, 4.4409E-11
DataValue, 0.02, 0.1, 7.7087E-11, 6.4013E-09, -6.38566E-09, 6.4013E-09, 6.38566E-09, 7.7087E-11
DataValue, 0.04, 0.1, 7.3193000000000008E-11, 1.16648E-08, -1.1630599999999998E-08, 1.16648E-08, 1.1630599999999998E-08, 7.3193000000000008E-11
DataValue, 0.060000000000000005, 0.1, 6.8039000000000009E-11, 2.04868E-08, -2.0488799999999998E-08, 2.04868E-08, 2.0488799999999998E-08, 6.8039000000000009E-11
DataValue, 0.08, 0.1, 6.8436E-11, 3.44994E-08, -3.4443E-08, 3.44994E-08, 3.4443E-08, 6.8436E-11
DataValue, 0.1, 0.1, 6.8220000000000011E-11, 5.5693099999999993E-08, -5.5563899999999995E-08, 5.5693099999999993E-08, 5.5563899999999995E-08, 6.8220000000000011E-11
