
SetupTitle, ITO_IdVG
PrimitiveTest, I/V Sweep
TestParameter, Context.MainFrame, 4156C
TestParameter, Channel.UnitType, SMU, SMU, SMU
TestParameter, Channel.Unit, SMU3:HR, SMU1:HR, SMU4:HR
TestParameter, Channel.IName, Ig, Id, Is
TestParameter, Channel.VName, Vg, Vd, Vs
TestParameter, Channel.Mode, V, V, COMMON
TestParameter, Channel.Func, VAR1, CONST, CONST
TestParameter, Channel.Index, 
TestParameter, Channel.Time, 
TestParameter, Measurement.Port.Unit, SMU3:HR, SMU1:HR, SMU4:HR
TestParameter, Measurement.Port.SeriesResistor, NONE, NONE, NONE
TestParameter, Measurement.Port.Filter, ON, ON, ON
TestParameter, Measurement.Primary.Locus, Double
TestParameter, Measurement.Primary.Scale, LINEAR
TestParameter, Measurement.Primary.Start, -2
TestParameter, Measurement.Primary.Stop, 2
TestParameter, Measurement.Primary.Step, 0.02
TestParameter, Measurement.Primary.Compliance, 0.1
TestParameter, Measurement.Primary.PowerCompliance, 0
TestParameter, Measurement.Aborting.Condition, CONTINUE AT ANY
TestParameter, Measurement.PostOutput.Value, START
TestParameter, Measurement.PostOutput.Retention, OFF
TestParameter, Measurement.Bias.Source, -2, 0.1, 0
TestParameter, Measurement.Bias.Compliance, 0.1, 0.1, 0.1
TestParameter, Measurement.Monitor.Unit, SMU3:HR, SMU1:HR, SMU4:HR
TestParameter, Measurement.Monitor.Adc, HR ADC, HR ADC, HR ADC
TestParameter, Measurement.Monitor.RangingMode, LIMITED, LIMITED, LIMITED
TestParameter, Measurement.Monitor.RangeBoundary, 1nA, 1nA, 1nA
TestParameter, Measurement.Monitor.RangeRating, BY FULL RANGE, BY FULL RANGE, BY FULL RANGE
TestParameter, Measurement.Monitor.RangeRatingCoeff, 50, 50, 50
TestParameter, Measurement.Timing.Hold, 0
TestParameter, Measurement.Timing.Delay, 0.05
TestParameter, Measurement.Adc.HighResolution.AutoZero, OFF
TestParameter, Measurement.Adc.HighResolution.Mode, AUTO
TestParameter, Measurement.Adc.HighResolution.Coeff, 1
TestParameter, Measurement.Ag16440ASelector.SemiconductorRelay.Channel1, DEFAULT
TestParameter, Measurement.Ag16440ASelector.SemiconductorRelay.Channel3, DEFAULT
TestParameter, Function.User.Name, absId, absIs, absIg
TestParameter, Function.User.Unit, A, A, A
TestParameter, Function.User.Definition, abs(Id), abs(Is), abs(Ig)
TestParameter, Output.Graph.Enabled, true
TestParameter, Output.Graph.XAxis.Data, Vg
TestParameter, Output.Graph.XAxis.Scale, Linear
TestParameter, Output.Graph.XAxis.Left, -2
TestParameter, Output.Graph.XAxis.Right, 2
TestParameter, Output.Graph.YAxis.Data, absId, absIs, absIg
TestParameter, Output.Graph.YAxis.Scale, Log, Log, Log
TestParameter, Output.Graph.YAxis.Bottom, 1E-15, 1E-15, 1E-15
TestParameter, Output.Graph.YAxis.Top, 0.1, 0.1, 0.1
TestParameter, Output.Graph.YAxis.Group, , , 
TestParameter, Output.List.Data, Vg, Vd, Id, Is, Ig
TestParameter, AutoAnalysis.Interpolation, false
TestParameter, AutoAnalysis.Line1.Enabled, false
TestParameter, AutoAnalysis.Line1.Type, 1
TestParameter, AutoAnalysis.Line1.Fix, True
TestParameter, AutoAnalysis.Line1.YAxis, 0
TestParameter, AutoAnalysis.Line1.Point1.Type, 0
TestParameter, AutoAnalysis.Line1.Point1.XY.X, 
TestParameter, AutoAnalysis.Line1.Point1.XY.Y, 
TestParameter, AutoAnalysis.Line1.Point1.Data.Var, 
TestParameter, AutoAnalysis.Line1.Point1.Data.Condition, 
TestParameter, AutoAnalysis.Line1.Point1.Data.Start, false
TestParameter, AutoAnalysis.Line1.Point1.Data.StartVar, 
TestParameter, AutoAnalysis.Line1.Point1.Data.StartCondition, 
TestParameter, AutoAnalysis.Line1.Point2.Type, 0
TestParameter, AutoAnalysis.Line1.Point2.XY.X, 
TestParameter, AutoAnalysis.Line1.Point2.XY.Y, 
TestParameter, AutoAnalysis.Line1.Point2.Data.Var, 
TestParameter, AutoAnalysis.Line1.Point2.Data.Condition, 
TestParameter, AutoAnalysis.Line1.Point2.Data.Start, false
TestParameter, AutoAnalysis.Line1.Point2.Data.StartVar, 
TestParameter, AutoAnalysis.Line1.Point2.Data.StartCondition, 
TestParameter, AutoAnalysis.Line1.GradientExpr, 0
TestParameter, AutoAnalysis.Line2.Enabled, false
TestParameter, AutoAnalysis.Line2.Type, 1
TestParameter, AutoAnalysis.Line2.Fix, True
TestParameter, AutoAnalysis.Line2.YAxis, 0
TestParameter, AutoAnalysis.Line2.Point1.Type, 0
TestParameter, AutoAnalysis.Line2.Point1.XY.X, 
TestParameter, AutoAnalysis.Line2.Point1.XY.Y, 
TestParameter, AutoAnalysis.Line2.Point1.Data.Var, 
TestParameter, AutoAnalysis.Line2.Point1.Data.Condition, 
TestParameter, AutoAnalysis.Line2.Point1.Data.Start, false
TestParameter, AutoAnalysis.Line2.Point1.Data.StartVar, 
TestParameter, AutoAnalysis.Line2.Point1.Data.StartCondition, 
TestParameter, AutoAnalysis.Line2.Point2.Type, 0
TestParameter, AutoAnalysis.Line2.Point2.XY.X, 
TestParameter, AutoAnalysis.Line2.Point2.XY.Y, 
TestParameter, AutoAnalysis.Line2.Point2.Data.Var, 
TestParameter, AutoAnalysis.Line2.Point2.Data.Condition, 
TestParameter, AutoAnalysis.Line2.Point2.Data.Start, false
TestParameter, AutoAnalysis.Line2.Point2.Data.StartVar, 
TestParameter, AutoAnalysis.Line2.Point2.Data.StartCondition, 
TestParameter, AutoAnalysis.Line2.GradientExpr, 0
TestParameter, AutoAnalysis.Marker.Enabled, false
TestParameter, AutoAnalysis.Marker.Data.Var, 
TestParameter, AutoAnalysis.Marker.Data.Condition, 
TestParameter, AutoAnalysis.Marker.Data.Start, false
TestParameter, AutoAnalysis.Marker.Data.StartVar, 
TestParameter, AutoAnalysis.Marker.Data.StartCondition, 
MetaData, TestRecord.EntryPoint, true
MetaData, TestRecord.RecordTime, 12/18/2022 16:12:41
MetaData, TestRecord.TestTarget, 
MetaData, TestRecord.IterationIndex, 31
MetaData, TestRecord.Preservation, true
MetaData, TestRecord.Flag, 
MetaData, TestRecord.Remarks, T=50C 2R sample
MetaData, TestRecord.LinkKey, b679d862-2c4f-477a-963d-cb3d1c8d103e
Dimension1, 402, 402, 402, 402, 402, 402, 402, 402
Dimension2, 1, 1, 1, 1, 1, 1, 1, 1
DataName, Vg, Vd, Ig, Id, Is, absId, absIs, absIg
DataValue, -2, 0.1, -2.43255E-10, 5.5000000000000008E-13, 3.6800000000000005E-13, 5.5000000000000008E-13, 3.6800000000000005E-13, 2.43255E-10
DataValue, -1.9800000000000002, 0.1, -7.5370000000000007E-11, 3.5700000000000004E-13, 2.24E-13, 3.5700000000000004E-13, 2.24E-13, 7.5370000000000007E-11
DataValue, -1.9600000000000002, 0.1, -5.011E-11, 3.4900000000000003E-13, 4.24E-13, 3.4900000000000003E-13, 4.24E-13, 5.011E-11
DataValue, -1.9400000000000002, 0.1, -1.6828E-11, 2.47E-13, 9.7E-14, 2.47E-13, 9.7E-14, 1.6828E-11
DataValue, -1.9200000000000002, 0.1, -1.8241000000000002E-11, 2.38E-13, 8.4000000000000008E-14, 2.38E-13, 8.4000000000000008E-14, 1.8241000000000002E-11
DataValue, -1.9000000000000001, 0.1, -1.7620000000000003E-11, 1.4400000000000002E-13, -4.87E-13, 1.4400000000000002E-13, 4.87E-13, 1.7620000000000003E-11
DataValue, -1.8800000000000001, 0.1, -3.9948000000000004E-11, 2.3100000000000003E-13, 1.1000000000000001E-13, 2.3100000000000003E-13, 1.1000000000000001E-13, 3.9948000000000004E-11
DataValue, -1.86, 0.1, -2.9190000000000005E-11, 1.24E-13, 3.1E-14, 1.24E-13, 3.1E-14, 2.9190000000000005E-11
DataValue, -1.84, 0.1, -6.063E-12, 7E-14, -8.6400000000000005E-13, 7E-14, 8.6400000000000005E-13, 6.063E-12
DataValue, -1.82, 0.1, -2.735E-11, 1.2100000000000002E-13, 2.8E-14, 1.2100000000000002E-13, 2.8E-14, 2.735E-11
DataValue, -1.8, 0.1, -2.0581E-11, 1.1300000000000001E-13, 3.4E-14, 1.1300000000000001E-13, 3.4E-14, 2.0581E-11
DataValue, -1.78, 0.1, -1.5366000000000002E-11, 6.8E-14, 2.5E-14, 6.8E-14, 2.5E-14, 1.5366000000000002E-11
DataValue, -1.76, 0.1, -1.0823000000000001E-11, 8.0000000000000013E-14, 1.0000000000000002E-14, 8.0000000000000013E-14, 1.0000000000000002E-14, 1.0823000000000001E-11
DataValue, -1.74, 0.1, -7.2430000000000005E-12, 1.1E-14, -2.3000000000000003E-14, 1.1E-14, 2.3000000000000003E-14, 7.2430000000000005E-12
DataValue, -1.72, 0.1, -4.3340000000000007E-12, 1.4E-14, -1.7160000000000002E-12, 1.4E-14, 1.7160000000000002E-12, 4.3340000000000007E-12
DataValue, -1.7000000000000002, 0.1, -4.9151E-11, 9.3000000000000008E-14, 9.9000000000000007E-14, 9.3000000000000008E-14, 9.9000000000000007E-14, 4.9151E-11
DataValue, -1.6800000000000002, 0.1, -3.0796000000000004E-11, 4.7E-14, 5.3E-14, 4.7E-14, 5.3E-14, 3.0796000000000004E-11
DataValue, -1.6600000000000001, 0.1, -1.8640000000000003E-11, 2.7000000000000002E-14, -1.12E-13, 2.7000000000000002E-14, 1.12E-13, 1.8640000000000003E-11
DataValue, -1.6400000000000001, 0.1, -1.2401000000000001E-11, 1.0000000000000002E-14, 2.3000000000000003E-14, 1.0000000000000002E-14, 2.3000000000000003E-14, 1.2401000000000001E-11
DataValue, -1.62, 0.1, 1.9885E-11, -5.4000000000000003E-14, -8.4000000000000008E-14, 5.4000000000000003E-14, 8.4000000000000008E-14, 1.9885E-11
DataValue, -1.6, 0.1, 3.2171E-11, -8.2E-14, -1.3E-13, 8.2E-14, 1.3E-13, 3.2171E-11
DataValue, -1.58, 0.1, 2.6446E-11, -1.09E-13, -7.6E-14, 1.09E-13, 7.6E-14, 2.6446E-11
DataValue, -1.56, 0.1, 2.2885E-11, -9.8000000000000012E-14, -8.1000000000000008E-14, 9.8000000000000012E-14, 8.1000000000000008E-14, 2.2885E-11
DataValue, -1.54, 0.1, 1.8444000000000002E-11, -7.8000000000000008E-14, -4.9000000000000006E-14, 7.8000000000000008E-14, 4.9000000000000006E-14, 1.8444000000000002E-11
DataValue, -1.52, 0.1, 1.7736000000000003E-11, -8.1000000000000008E-14, -7.1E-14, 8.1000000000000008E-14, 7.1E-14, 1.7736000000000003E-11
DataValue, -1.5, 0.1, 3.8042E-11, -1.0500000000000001E-13, -1.2000000000000001E-14, 1.0500000000000001E-13, 1.2000000000000001E-14, 3.8042E-11
DataValue, -1.48, 0.1, 3.7834E-11, -1.17E-13, -5.4700000000000009E-13, 1.17E-13, 5.4700000000000009E-13, 3.7834E-11
DataValue, -1.46, 0.1, 1.4226000000000002E-11, -4.8000000000000004E-14, -9.6000000000000007E-14, 4.8000000000000004E-14, 9.6000000000000007E-14, 1.4226000000000002E-11
DataValue, -1.4400000000000002, 0.1, 3.7286000000000006E-11, -1.48E-13, -9.0000000000000008E-14, 1.48E-13, 9.0000000000000008E-14, 3.7286000000000006E-11
DataValue, -1.4200000000000002, 0.1, 3.4491000000000004E-11, -4.6000000000000006E-14, -1.3300000000000001E-13, 4.6000000000000006E-14, 1.3300000000000001E-13, 3.4491000000000004E-11
DataValue, -1.4000000000000001, 0.1, 3.0775000000000005E-11, -1.0500000000000001E-13, -9.9000000000000007E-14, 1.0500000000000001E-13, 9.9000000000000007E-14, 3.0775000000000005E-11
DataValue, -1.3800000000000001, 0.1, -7.0830000000000004E-12, -6.2E-14, -1.1E-14, 6.2E-14, 1.1E-14, 7.0830000000000004E-12
DataValue, -1.36, 0.1, -1.6090000000000001E-12, -6.6000000000000009E-14, -2.5E-14, 6.6000000000000009E-14, 2.5E-14, 1.6090000000000001E-12
DataValue, -1.34, 0.1, 3.5920000000000004E-12, -5.5000000000000005E-14, -4.1E-14, 5.5000000000000005E-14, 4.1E-14, 3.5920000000000004E-12
DataValue, -1.32, 0.1, 2.5960000000000003E-11, -9.0000000000000008E-14, -7.2000000000000009E-14, 9.0000000000000008E-14, 7.2000000000000009E-14, 2.5960000000000003E-11
DataValue, -1.3, 0.1, 2.7053000000000003E-11, -1.0700000000000001E-13, -6.4E-14, 1.0700000000000001E-13, 6.4E-14, 2.7053000000000003E-11
DataValue, -1.28, 0.1, 2.8314000000000002E-11, -9.0000000000000008E-14, -8.0000000000000013E-14, 9.0000000000000008E-14, 8.0000000000000013E-14, 2.8314000000000002E-11
DataValue, -1.26, 0.1, 2.8574000000000003E-11, -9.5000000000000012E-14, -8.7000000000000008E-14, 9.5000000000000012E-14, 8.7000000000000008E-14, 2.8574000000000003E-11
DataValue, -1.24, 0.1, 2.9205000000000004E-11, -8.9000000000000012E-14, -1.0200000000000001E-13, 8.9000000000000012E-14, 1.0200000000000001E-13, 2.9205000000000004E-11
DataValue, -1.22, 0.1, 3.1527E-11, -6.3000000000000009E-14, -9.3000000000000008E-14, 6.3000000000000009E-14, 9.3000000000000008E-14, 3.1527E-11
DataValue, -1.2, 0.1, 2.983E-11, -1.0700000000000001E-13, -5.6E-14, 1.0700000000000001E-13, 5.6E-14, 2.983E-11
DataValue, -1.1800000000000002, 0.1, 3.0610000000000005E-11, -8.8600000000000006E-13, -2.8E-14, 8.8600000000000006E-13, 2.8E-14, 3.0610000000000005E-11
DataValue, -1.1600000000000001, 0.1, 1.2111000000000001E-11, -8.2E-14, -5E-14, 8.2E-14, 5E-14, 1.2111000000000001E-11
DataValue, -1.1400000000000001, 0.1, 1.5281E-11, -1.03E-13, -4.5000000000000004E-14, 1.03E-13, 4.5000000000000004E-14, 1.5281E-11
DataValue, -1.12, 0.1, 1.8268E-11, -2.1600000000000001E-13, -7.2000000000000009E-14, 2.1600000000000001E-13, 7.2000000000000009E-14, 1.8268E-11
DataValue, -1.1, 0.1, 1.9694E-11, -9.0000000000000008E-14, -7.5000000000000009E-14, 9.0000000000000008E-14, 7.5000000000000009E-14, 1.9694E-11
DataValue, -1.08, 0.1, 4.7884E-11, -1.4400000000000002E-13, -1.03E-13, 1.4400000000000002E-13, 1.03E-13, 4.7884E-11
DataValue, -1.06, 0.1, 4.2681000000000004E-11, -9.48E-13, -7.3E-14, 9.48E-13, 7.3E-14, 4.2681000000000004E-11
DataValue, -1.04, 0.1, 1.8271E-11, -9.7E-14, -3.1E-14, 9.7E-14, 3.1E-14, 1.8271E-11
DataValue, -1.02, 0.1, 4.5296000000000006E-11, -1.16E-13, -9.0000000000000008E-14, 1.16E-13, 9.0000000000000008E-14, 4.5296000000000006E-11
DataValue, -1, 0.1, 4.1609000000000003E-11, -1.4400000000000002E-13, -8.9000000000000012E-14, 1.4400000000000002E-13, 8.9000000000000012E-14, 4.1609000000000003E-11
DataValue, -0.98000000000000009, 0.1, 4.0999000000000005E-11, -8.2E-14, -9.2000000000000012E-14, 8.2E-14, 9.2000000000000012E-14, 4.0999000000000005E-11
DataValue, -0.96000000000000008, 0.1, 4.0558E-11, -9.3000000000000008E-14, -1.03E-13, 9.3000000000000008E-14, 1.03E-13, 4.0558E-11
DataValue, -0.94000000000000006, 0.1, 3.966E-11, -9.11E-13, -3.8E-14, 9.11E-13, 3.8E-14, 3.966E-11
DataValue, -0.92, 0.1, 1.9070000000000002E-11, -5E-14, -5.8E-14, 5E-14, 5.8E-14, 1.9070000000000002E-11
DataValue, -0.9, 0.1, 4.7952000000000004E-11, -1.83E-13, -9.9000000000000007E-14, 1.83E-13, 9.9000000000000007E-14, 4.7952000000000004E-11
DataValue, -0.88, 0.1, 4.2688000000000006E-11, -1.0700000000000001E-13, -1.2100000000000002E-13, 1.0700000000000001E-13, 1.2100000000000002E-13, 4.2688000000000006E-11
DataValue, -0.86, 0.1, 4.3571000000000006E-11, -1.4300000000000002E-13, -9.1E-14, 1.4300000000000002E-13, 9.1E-14, 4.3571000000000006E-11
DataValue, -0.84000000000000008, 0.1, 6.9365000000000011E-11, -1.1100000000000001E-13, -1.46E-13, 1.1100000000000001E-13, 1.46E-13, 6.9365000000000011E-11
DataValue, -0.82000000000000006, 0.1, 5.9805000000000007E-11, -1.71E-13, -1.4500000000000001E-13, 1.71E-13, 1.4500000000000001E-13, 5.9805000000000007E-11
DataValue, -0.8, 0.1, 5.1475E-11, -1.57E-13, -2.46E-13, 1.57E-13, 2.46E-13, 5.1475E-11
DataValue, -0.78, 0.1, 2.5267E-11, -6.6000000000000009E-14, -2.2E-14, 6.6000000000000009E-14, 2.2E-14, 2.5267E-11
DataValue, -0.76, 0.1, 3.0202E-11, -1.0500000000000001E-13, -9.0000000000000011E-15, 1.0500000000000001E-13, 9.0000000000000011E-15, 3.0202E-11
DataValue, -0.74, 0.1, 1.6039E-11, -1.1100000000000001E-13, 5.39E-13, 1.1100000000000001E-13, 5.39E-13, 1.6039E-11
DataValue, -0.72000000000000008, 0.1, 4.0193000000000005E-11, -1.17E-13, -7.9E-14, 1.17E-13, 7.9E-14, 4.0193000000000005E-11
DataValue, -0.70000000000000007, 0.1, 3.9449E-11, -1.22E-13, -8.9000000000000012E-14, 1.22E-13, 8.9000000000000012E-14, 3.9449E-11
DataValue, -0.68, 0.1, 4.0861000000000004E-11, -1.0800000000000001E-13, -1.17E-13, 1.0800000000000001E-13, 1.17E-13, 4.0861000000000004E-11
DataValue, -0.66, 0.1, 4.0549E-11, -1.28E-13, -1.2700000000000001E-13, 1.28E-13, 1.2700000000000001E-13, 4.0549E-11
DataValue, -0.64, 0.1, 4.0770000000000005E-11, -1.4300000000000002E-13, -1.2600000000000002E-13, 1.4300000000000002E-13, 1.2600000000000002E-13, 4.0770000000000005E-11
DataValue, -0.62, 0.1, 4.1489E-11, -1.5500000000000002E-13, 7.47E-13, 1.5500000000000002E-13, 7.47E-13, 4.1489E-11
DataValue, -0.6, 0.1, 7.1861000000000007E-11, -1.5100000000000001E-13, -1.22E-13, 1.5100000000000001E-13, 1.22E-13, 7.1861000000000007E-11
DataValue, -0.58000000000000007, 0.1, 4.2189E-11, -2.9E-14, 3.2E-14, 2.9E-14, 3.2E-14, 4.2189E-11
DataValue, -0.56, 0.1, 1.4958E-11, -5.2000000000000006E-14, 6.84E-13, 5.2000000000000006E-14, 6.84E-13, 1.4958E-11
DataValue, -0.54, 0.1, 4.3742000000000006E-11, -1.29E-13, -1.06E-13, 1.29E-13, 1.06E-13, 4.3742000000000006E-11
DataValue, -0.52, 0.1, 2.9424E-11, -8.7000000000000008E-14, -5.8E-14, 8.7000000000000008E-14, 5.8E-14, 2.9424E-11
DataValue, -0.5, 0.1, 2.1032000000000002E-11, 3.1E-14, 6.39E-13, 3.1E-14, 6.39E-13, 2.1032000000000002E-11
DataValue, -0.48000000000000004, 0.1, 5.5467000000000003E-11, -1.17E-13, -1.3900000000000001E-13, 1.17E-13, 1.3900000000000001E-13, 5.5467000000000003E-11
DataValue, -0.46, 0.1, 3.2985E-11, -4.7E-14, -1.5600000000000002E-13, 4.7E-14, 1.5600000000000002E-13, 3.2985E-11
DataValue, -0.44, 0.1, 1.9601E-11, 8.3000000000000012E-14, 4.97E-13, 8.3000000000000012E-14, 4.97E-13, 1.9601E-11
DataValue, -0.42000000000000004, 0.1, 4.6091E-11, 2.1500000000000002E-13, -4.4000000000000004E-13, 2.1500000000000002E-13, 4.4000000000000004E-13, 4.6091E-11
DataValue, -0.4, 0.1, 4.7421000000000005E-11, 5.5300000000000007E-13, -7.360000000000001E-13, 5.5300000000000007E-13, 7.360000000000001E-13, 4.7421000000000005E-11
DataValue, -0.38, 0.1, 4.7523E-11, 1.166E-12, -1.3570000000000002E-12, 1.166E-12, 1.3570000000000002E-12, 4.7523E-11
DataValue, -0.36000000000000004, 0.1, 4.7773000000000007E-11, 2.311E-12, -2.516E-12, 2.311E-12, 2.516E-12, 4.7773000000000007E-11
DataValue, -0.34, 0.1, 4.5250000000000005E-11, 4.525E-12, -4.7240000000000005E-12, 4.525E-12, 4.7240000000000005E-12, 4.5250000000000005E-11
DataValue, -0.32, 0.1, 4.4295E-11, 8.731E-12, -9.5360000000000014E-12, 8.731E-12, 9.5360000000000014E-12, 4.4295E-11
DataValue, -0.3, 0.1, 2.0525E-11, 1.6951000000000002E-11, -1.7044000000000002E-11, 1.6951000000000002E-11, 1.7044000000000002E-11, 2.0525E-11
DataValue, -0.28, 0.1, 9.0796E-11, 3.2467000000000005E-11, -3.2658E-11, 3.2467000000000005E-11, 3.2658E-11, 9.0796E-11
DataValue, -0.26, 0.1, 7.2019E-11, 6.2608E-11, -6.2483E-11, 6.2608E-11, 6.2483E-11, 7.2019E-11
DataValue, -0.24000000000000002, 0.1, 3.8824000000000003E-11, 1.2002600000000002E-10, -1.19772E-10, 1.2002600000000002E-10, 1.19772E-10, 3.8824000000000003E-11
DataValue, -0.22, 0.1, 4.2670000000000006E-11, 2.3133700000000003E-10, -2.2983700000000003E-10, 2.3133700000000003E-10, 2.2983700000000003E-10, 4.2670000000000006E-11
DataValue, -0.2, 0.1, 4.4810000000000005E-11, 4.41861E-10, -4.4122000000000005E-10, 4.41861E-10, 4.4122000000000005E-10, 4.4810000000000005E-11
DataValue, -0.18000000000000002, 0.1, 2.3764000000000003E-11, 8.4227300000000005E-10, -8.3878000000000008E-10, 8.4227300000000005E-10, 8.3878000000000008E-10, 2.3764000000000003E-11
DataValue, -0.16, 0.1, 2.7562E-11, 1.58806E-09, -1.58866E-09, 1.58806E-09, 1.58866E-09, 2.7562E-11
DataValue, -0.14, 0.1, 3.4225000000000003E-11, 3.01289E-09, -3.01375E-09, 3.01289E-09, 3.01375E-09, 3.4225000000000003E-11
DataValue, -0.12000000000000001, 0.1, 7.5428E-11, 5.63621E-09, -5.62563E-09, 5.63621E-09, 5.62563E-09, 7.5428E-11
DataValue, -0.1, 0.1, 7.1776E-11, 1.032781E-08, -1.032616E-08, 1.032781E-08, 1.032616E-08, 7.1776E-11
DataValue, -0.08, 0.1, 6.4999E-11, 1.82748E-08, -1.8180799999999998E-08, 1.82748E-08, 1.8180799999999998E-08, 6.4999E-11
DataValue, -0.060000000000000005, 0.1, 6.3274E-11, 3.1764899999999995E-08, -3.17071E-08, 3.1764899999999995E-08, 3.17071E-08, 6.3274E-11
DataValue, -0.04, 0.1, 6.5671E-11, 5.3577099999999996E-08, -5.3495E-08, 5.3577099999999996E-08, 5.3495E-08, 6.5671E-11
DataValue, -0.02, 0.1, 6.755400000000001E-11, 8.6890599999999985E-08, -8.68186E-08, 8.6890599999999985E-08, 8.68186E-08, 6.755400000000001E-11
DataValue, 0, 0.1, 6.676000000000001E-11, 1.35761E-07, -1.35292E-07, 1.35761E-07, 1.35292E-07, 6.676000000000001E-11
DataValue, 0.02, 0.1, 6.4689E-11, 2.05764E-07, -2.05543E-07, 2.05764E-07, 2.05543E-07, 6.4689E-11
DataValue, 0.04, 0.1, 6.7226E-11, 3.00342E-07, -2.99854E-07, 3.00342E-07, 2.99854E-07, 6.7226E-11
DataValue, 0.060000000000000005, 0.1, 1.0250500000000001E-10, 4.25506E-07, -4.24743E-07, 4.25506E-07, 4.24743E-07, 1.0250500000000001E-10
