
SetupTitle, ITO_IdVG
PrimitiveTest, I/V Sweep
TestParameter, Context.MainFrame, 4156C
TestParameter, Channel.UnitType, SMU, SMU, SMU
TestParameter, Channel.Unit, SMU3:HR, SMU1:HR, SMU4:HR
TestParameter, Channel.IName, Ig, Id, Is
TestParameter, Channel.VName, Vg, Vd, Vs
TestParameter, Channel.Mode, V, V, COMMON
TestParameter, Channel.Func, VAR1, CONST, CONST
TestParameter, Channel.Index, 
TestParameter, Channel.Time, 
TestParameter, Measurement.Port.Unit, SMU3:HR, SMU1:HR, SMU4:HR
TestParameter, Measurement.Port.SeriesResistor, NONE, NONE, NONE
TestParameter, Measurement.Port.Filter, ON, ON, ON
TestParameter, Measurement.Primary.Locus, Double
TestParameter, Measurement.Primary.Scale, LINEAR
TestParameter, Measurement.Primary.Start, -2
TestParameter, Measurement.Primary.Stop, 2
TestParameter, Measurement.Primary.Step, 0.02
TestParameter, Measurement.Primary.Compliance, 0.1
TestParameter, Measurement.Primary.PowerCompliance, 0
TestParameter, Measurement.Aborting.Condition, CONTINUE AT ANY
TestParameter, Measurement.PostOutput.Value, START
TestParameter, Measurement.PostOutput.Retention, OFF
TestParameter, Measurement.Bias.Source, -2, 0.1, 0
TestParameter, Measurement.Bias.Compliance, 0.1, 0.1, 0.1
TestParameter, Measurement.Monitor.Unit, SMU3:HR, SMU1:HR, SMU4:HR
TestParameter, Measurement.Monitor.Adc, HR ADC, HR ADC, HR ADC
TestParameter, Measurement.Monitor.RangingMode, LIMITED, LIMITED, LIMITED
TestParameter, Measurement.Monitor.RangeBoundary, 1nA, 1nA, 1nA
TestParameter, Measurement.Monitor.RangeRating, BY FULL RANGE, BY FULL RANGE, BY FULL RANGE
TestParameter, Measurement.Monitor.RangeRatingCoeff, 50, 50, 50
TestParameter, Measurement.Timing.Hold, 0
TestParameter, Measurement.Timing.Delay, 0.05
TestParameter, Measurement.Adc.HighResolution.AutoZero, OFF
TestParameter, Measurement.Adc.HighResolution.Mode, AUTO
TestParameter, Measurement.Adc.HighResolution.Coeff, 1
TestParameter, Measurement.Ag16440ASelector.SemiconductorRelay.Channel1, DEFAULT
TestParameter, Measurement.Ag16440ASelector.SemiconductorRelay.Channel3, DEFAULT
TestParameter, Function.User.Name, absId, absIs, absIg
TestParameter, Function.User.Unit, A, A, A
TestParameter, Function.User.Definition, abs(Id), abs(Is), abs(Ig)
TestParameter, Output.Graph.Enabled, true
TestParameter, Output.Graph.XAxis.Data, Vg
TestParameter, Output.Graph.XAxis.Scale, Linear
TestParameter, Output.Graph.XAxis.Left, -2
TestParameter, Output.Graph.XAxis.Right, 2
TestParameter, Output.Graph.YAxis.Data, absId, absIs, absIg
TestParameter, Output.Graph.YAxis.Scale, Log, Log, Log
TestParameter, Output.Graph.YAxis.Bottom, 1E-15, 1E-15, 1E-15
TestParameter, Output.Graph.YAxis.Top, 0.1, 0.1, 0.1
TestParameter, Output.Graph.YAxis.Group, , , 
TestParameter, Output.List.Data, Vg, Vd, Id, Is, Ig
TestParameter, AutoAnalysis.Interpolation, false
TestParameter, AutoAnalysis.Line1.Enabled, false
TestParameter, AutoAnalysis.Line1.Type, 1
TestParameter, AutoAnalysis.Line1.Fix, True
TestParameter, AutoAnalysis.Line1.YAxis, 0
TestParameter, AutoAnalysis.Line1.Point1.Type, 0
TestParameter, AutoAnalysis.Line1.Point1.XY.X, 
TestParameter, AutoAnalysis.Line1.Point1.XY.Y, 
TestParameter, AutoAnalysis.Line1.Point1.Data.Var, 
TestParameter, AutoAnalysis.Line1.Point1.Data.Condition, 
TestParameter, AutoAnalysis.Line1.Point1.Data.Start, false
TestParameter, AutoAnalysis.Line1.Point1.Data.StartVar, 
TestParameter, AutoAnalysis.Line1.Point1.Data.StartCondition, 
TestParameter, AutoAnalysis.Line1.Point2.Type, 0
TestParameter, AutoAnalysis.Line1.Point2.XY.X, 
TestParameter, AutoAnalysis.Line1.Point2.XY.Y, 
TestParameter, AutoAnalysis.Line1.Point2.Data.Var, 
TestParameter, AutoAnalysis.Line1.Point2.Data.Condition, 
TestParameter, AutoAnalysis.Line1.Point2.Data.Start, false
TestParameter, AutoAnalysis.Line1.Point2.Data.StartVar, 
TestParameter, AutoAnalysis.Line1.Point2.Data.StartCondition, 
TestParameter, AutoAnalysis.Line1.GradientExpr, 0
TestParameter, AutoAnalysis.Line2.Enabled, false
TestParameter, AutoAnalysis.Line2.Type, 1
TestParameter, AutoAnalysis.Line2.Fix, True
TestParameter, AutoAnalysis.Line2.YAxis, 0
TestParameter, AutoAnalysis.Line2.Point1.Type, 0
TestParameter, AutoAnalysis.Line2.Point1.XY.X, 
TestParameter, AutoAnalysis.Line2.Point1.XY.Y, 
TestParameter, AutoAnalysis.Line2.Point1.Data.Var, 
TestParameter, AutoAnalysis.Line2.Point1.Data.Condition, 
TestParameter, AutoAnalysis.Line2.Point1.Data.Start, false
TestParameter, AutoAnalysis.Line2.Point1.Data.StartVar, 
TestParameter, AutoAnalysis.Line2.Point1.Data.StartCondition, 
TestParameter, AutoAnalysis.Line2.Point2.Type, 0
TestParameter, AutoAnalysis.Line2.Point2.XY.X, 
TestParameter, AutoAnalysis.Line2.Point2.XY.Y, 
TestParameter, AutoAnalysis.Line2.Point2.Data.Var, 
TestParameter, AutoAnalysis.Line2.Point2.Data.Condition, 
TestParameter, AutoAnalysis.Line2.Point2.Data.Start, false
TestParameter, AutoAnalysis.Line2.Point2.Data.StartVar, 
TestParameter, AutoAnalysis.Line2.Point2.Data.StartCondition, 
TestParameter, AutoAnalysis.Line2.GradientExpr, 0
TestParameter, AutoAnalysis.Marker.Enabled, false
TestParameter, AutoAnalysis.Marker.Data.Var, 
TestParameter, AutoAnalysis.Marker.Data.Condition, 
TestParameter, AutoAnalysis.Marker.Data.Start, false
TestParameter, AutoAnalysis.Marker.Data.StartVar, 
TestParameter, AutoAnalysis.Marker.Data.StartCondition, 
MetaData, TestRecord.EntryPoint, true
MetaData, TestRecord.RecordTime, 12/18/2022 16:27:05
MetaData, TestRecord.TestTarget, 
MetaData, TestRecord.IterationIndex, 40
MetaData, TestRecord.Preservation, true
MetaData, TestRecord.Flag, 
MetaData, TestRecord.Remarks, T=60C 2R sample
MetaData, TestRecord.LinkKey, 7305ffb0-14e0-4a1b-84ea-35a5fe99a561
Dimension1, 402, 402, 402, 402, 402, 402, 402, 402
Dimension2, 1, 1, 1, 1, 1, 1, 1, 1
DataName, Vg, Vd, Ig, Id, Is, absId, absIs, absIg
DataValue, -2, 0.1, -2.75677E-10, 5.7E-13, 3.7000000000000004E-13, 5.7E-13, 3.7000000000000004E-13, 2.75677E-10
DataValue, -1.9800000000000002, 0.1, -9.6928E-11, 3.9500000000000003E-13, 1E-13, 3.9500000000000003E-13, 1E-13, 9.6928E-11
DataValue, -1.9600000000000002, 0.1, -7.6046E-11, 3.29E-13, 1.6600000000000003E-13, 3.29E-13, 1.6600000000000003E-13, 7.6046E-11
DataValue, -1.9400000000000002, 0.1, -4.8561000000000007E-11, 1.94E-13, 4.7E-14, 1.94E-13, 4.7E-14, 4.8561000000000007E-11
DataValue, -1.9200000000000002, 0.1, -9.776E-12, 2.2000000000000002E-13, -8.8100000000000008E-13, 2.2000000000000002E-13, 8.8100000000000008E-13, 9.776E-12
DataValue, -1.9000000000000001, 0.1, -6.5814E-11, 3.1100000000000004E-13, 7.2000000000000009E-14, 3.1100000000000004E-13, 7.2000000000000009E-14, 6.5814E-11
DataValue, -1.8800000000000001, 0.1, -4.0039E-11, 2.18E-13, 9.9000000000000007E-14, 2.18E-13, 9.9000000000000007E-14, 4.0039E-11
DataValue, -1.86, 0.1, -2.6268000000000002E-11, 2.11E-13, 1.7680000000000001E-12, 2.11E-13, 1.7680000000000001E-12, 2.6268000000000002E-11
DataValue, -1.84, 0.1, 6.1091E-11, 3.0000000000000005E-14, -5.5000000000000005E-14, 3.0000000000000005E-14, 5.5000000000000005E-14, 6.1091E-11
DataValue, -1.82, 0.1, 2.8395000000000002E-11, 5.5000000000000005E-14, -2.3000000000000003E-14, 5.5000000000000005E-14, 2.3000000000000003E-14, 2.8395000000000002E-11
DataValue, -1.8, 0.1, 1.4316000000000002E-11, 5.700000000000001E-14, -8.0800000000000009E-13, 5.700000000000001E-14, 8.0800000000000009E-13, 1.4316000000000002E-11
DataValue, -1.78, 0.1, -3.0779E-11, 1.0700000000000001E-13, 5.4000000000000003E-14, 1.0700000000000001E-13, 5.4000000000000003E-14, 3.0779E-11
DataValue, -1.76, 0.1, -1.5735E-11, 8.9000000000000012E-14, 3.7E-14, 8.9000000000000012E-14, 3.7E-14, 1.5735E-11
DataValue, -1.74, 0.1, -5.5810000000000006E-12, 7.4E-14, -1E-15, 7.4E-14, 1E-15, 5.5810000000000006E-12
DataValue, -1.72, 0.1, -2.177E-12, 3.2E-14, 1.6E-14, 3.2E-14, 1.6E-14, 2.177E-12
DataValue, -1.7000000000000002, 0.1, 1.5430000000000002E-12, 3.8E-14, -2E-15, 3.8E-14, 2E-15, 1.5430000000000002E-12
DataValue, -1.6800000000000002, 0.1, 3.7400000000000006E-12, -1.4E-14, -1.2000000000000001E-14, 1.4E-14, 1.2000000000000001E-14, 3.7400000000000006E-12
DataValue, -1.6600000000000001, 0.1, 5.111E-12, -1.2000000000000001E-14, -3.7E-14, 1.2000000000000001E-14, 3.7E-14, 5.111E-12
DataValue, -1.6400000000000001, 0.1, 8.221E-12, -4E-15, 1E-15, 4E-15, 1E-15, 8.221E-12
DataValue, -1.62, 0.1, 1.0278000000000001E-11, -2.4000000000000002E-14, -8.780000000000001E-13, 2.4000000000000002E-14, 8.780000000000001E-13, 1.0278000000000001E-11
DataValue, -1.6, 0.1, -2.9859000000000005E-11, 4.7E-14, 3.0000000000000005E-14, 4.7E-14, 3.0000000000000005E-14, 2.9859000000000005E-11
DataValue, -1.58, 0.1, -7.298E-12, -1.1E-14, -1.2000000000000001E-14, 1.1E-14, 1.2000000000000001E-14, 7.298E-12
DataValue, -1.56, 0.1, 3.5870000000000004E-12, -7E-15, 5.22E-13, 7E-15, 5.22E-13, 3.5870000000000004E-12
DataValue, -1.54, 0.1, 4.5171000000000006E-11, -1.0500000000000001E-13, -7.8000000000000008E-14, 1.0500000000000001E-13, 7.8000000000000008E-14, 4.5171000000000006E-11
DataValue, -1.52, 0.1, 3.3442E-11, -6.1E-14, -6.6000000000000009E-14, 6.1E-14, 6.6000000000000009E-14, 3.3442E-11
DataValue, -1.5, 0.1, 2.8713000000000003E-11, -7E-14, 1.89E-13, 7E-14, 1.89E-13, 2.8713000000000003E-11
DataValue, -1.48, 0.1, 6.4312E-11, -1.23E-13, -1.0200000000000001E-13, 1.23E-13, 1.0200000000000001E-13, 6.4312E-11
DataValue, -1.46, 0.1, -2.9600000000000003E-12, -4.1E-14, 1E-15, 4.1E-14, 1E-15, 2.9600000000000003E-12
DataValue, -1.4400000000000002, 0.1, 1.1511000000000001E-11, 5E-14, -1.34E-13, 5E-14, 1.34E-13, 1.1511000000000001E-11
DataValue, -1.4200000000000002, 0.1, 5.8474E-11, -1.4900000000000002E-13, -9.5000000000000012E-14, 1.4900000000000002E-13, 9.5000000000000012E-14, 5.8474E-11
DataValue, -1.4000000000000001, 0.1, -5.0570000000000008E-12, -2.8E-14, 0, 2.8E-14, 0, 5.0570000000000008E-12
DataValue, -1.3800000000000001, 0.1, 1.2579000000000001E-11, -7.5000000000000009E-14, -4.3000000000000006E-14, 7.5000000000000009E-14, 4.3000000000000006E-14, 1.2579000000000001E-11
DataValue, -1.36, 0.1, 2.0652000000000002E-11, -6.9000000000000009E-14, -4.9000000000000006E-14, 6.9000000000000009E-14, 4.9000000000000006E-14, 2.0652000000000002E-11
DataValue, -1.34, 0.1, 2.4593000000000002E-11, -8.5E-14, -6.5E-14, 8.5E-14, 6.5E-14, 2.4593000000000002E-11
DataValue, -1.32, 0.1, 2.8554000000000003E-11, -9.1E-14, -3.6000000000000004E-14, 9.1E-14, 3.6000000000000004E-14, 2.8554000000000003E-11
DataValue, -1.3, 0.1, 3.1091E-11, -1.09E-13, -1.1400000000000002E-13, 1.09E-13, 1.1400000000000002E-13, 3.1091E-11
DataValue, -1.28, 0.1, -2.0429000000000002E-11, -2.8E-14, 1.2000000000000001E-14, 2.8E-14, 1.2000000000000001E-14, 2.0429000000000002E-11
DataValue, -1.26, 0.1, 5.898E-12, -3.7E-14, -4.6000000000000006E-14, 3.7E-14, 4.6000000000000006E-14, 5.898E-12
DataValue, -1.24, 0.1, 1.8739000000000002E-11, -8.3000000000000012E-14, -6.3000000000000009E-14, 8.3000000000000012E-14, 6.3000000000000009E-14, 1.8739000000000002E-11
DataValue, -1.22, 0.1, 6.8533000000000008E-11, -1.4900000000000002E-13, -1.1100000000000001E-13, 1.4900000000000002E-13, 1.1100000000000001E-13, 6.8533000000000008E-11
DataValue, -1.2, 0.1, 5.1682000000000007E-11, -1.4500000000000001E-13, -8.4000000000000008E-14, 1.4500000000000001E-13, 8.4000000000000008E-14, 5.1682000000000007E-11
DataValue, -1.1800000000000002, 0.1, 4.385E-11, -9.9000000000000007E-14, -8.0000000000000013E-14, 9.9000000000000007E-14, 8.0000000000000013E-14, 4.385E-11
DataValue, -1.1600000000000001, 0.1, 4.0818E-11, -1.12E-13, -6.7E-14, 1.12E-13, 6.7E-14, 4.0818E-11
DataValue, -1.1400000000000001, 0.1, 3.8115E-11, -1.06E-13, -8.3000000000000012E-14, 1.06E-13, 8.3000000000000012E-14, 3.8115E-11
DataValue, -1.12, 0.1, 3.7995E-11, -1.1500000000000002E-13, -6.4E-14, 1.1500000000000002E-13, 6.4E-14, 3.7995E-11
DataValue, -1.1, 0.1, 3.7877E-11, -9.9000000000000007E-14, -7.3E-14, 9.9000000000000007E-14, 7.3E-14, 3.7877E-11
DataValue, -1.08, 0.1, 3.9626E-11, -1.0200000000000001E-13, -8.7000000000000008E-14, 1.0200000000000001E-13, 8.7000000000000008E-14, 3.9626E-11
DataValue, -1.06, 0.1, 3.9086E-11, -1.22E-13, -5.700000000000001E-14, 1.22E-13, 5.700000000000001E-14, 3.9086E-11
DataValue, -1.04, 0.1, 9.0536000000000009E-11, -2.0800000000000002E-13, -1.41E-13, 2.0800000000000002E-13, 1.41E-13, 9.0536000000000009E-11
DataValue, -1.02, 0.1, 6.3331000000000011E-11, -8.3000000000000012E-14, -9.1E-14, 8.3000000000000012E-14, 9.1E-14, 6.3331000000000011E-11
DataValue, -1, 0.1, 5.5835000000000007E-11, -1.29E-13, -9.6000000000000007E-14, 1.29E-13, 9.6000000000000007E-14, 5.5835000000000007E-11
DataValue, -0.98000000000000009, 0.1, 5.0577E-11, -1.29E-13, -9.7E-14, 1.29E-13, 9.7E-14, 5.0577E-11
DataValue, -0.96000000000000008, 0.1, 4.7902E-11, -1.2250000000000001E-12, 1.1500000000000002E-13, 1.2250000000000001E-12, 1.1500000000000002E-13, 4.7902E-11
DataValue, -0.94000000000000006, 0.1, -1.8987E-11, -2.6000000000000003E-14, 2.1000000000000002E-14, 2.6000000000000003E-14, 2.1000000000000002E-14, 1.8987E-11
DataValue, -0.92, 0.1, 9.816000000000001E-12, -6.4E-14, -5.700000000000001E-14, 6.4E-14, 5.700000000000001E-14, 9.816000000000001E-12
DataValue, -0.9, 0.1, 2.5373000000000002E-11, -1.22E-13, -2.3000000000000003E-14, 1.22E-13, 2.3000000000000003E-14, 2.5373000000000002E-11
DataValue, -0.88, 0.1, 3.0205E-11, -1.0500000000000001E-13, -6.9000000000000009E-14, 1.0500000000000001E-13, 6.9000000000000009E-14, 3.0205E-11
DataValue, -0.86, 0.1, 3.4868E-11, -6.2E-14, -8.1000000000000008E-14, 6.2E-14, 8.1000000000000008E-14, 3.4868E-11
DataValue, -0.84000000000000008, 0.1, 3.6989000000000004E-11, -2.4100000000000003E-13, -1.42E-13, 2.4100000000000003E-13, 1.42E-13, 3.6989000000000004E-11
DataValue, -0.82000000000000006, 0.1, 6.4098E-11, -1.7400000000000002E-13, -6.7200000000000006E-13, 1.7400000000000002E-13, 6.7200000000000006E-13, 6.4098E-11
DataValue, -0.8, 0.1, 1.096E-11, -7.9E-14, -9.4E-14, 7.9E-14, 9.4E-14, 1.096E-11
DataValue, -0.78, 0.1, 2.8444000000000003E-11, -1.1400000000000002E-13, -3.42E-13, 1.1400000000000002E-13, 3.42E-13, 2.8444000000000003E-11
DataValue, -0.76, 0.1, 7.462000000000001E-11, -8E-15, -4.9000000000000006E-14, 8E-15, 4.9000000000000006E-14, 7.462000000000001E-11
DataValue, -0.74, 0.1, 4.5844E-11, -1.3100000000000002E-13, -6.3000000000000009E-14, 1.3100000000000002E-13, 6.3000000000000009E-14, 4.5844E-11
DataValue, -0.72000000000000008, 0.1, 3.0542E-11, -1.5000000000000002E-13, 2.2E-14, 1.5000000000000002E-13, 2.2E-14, 3.0542E-11
DataValue, -0.70000000000000007, 0.1, 2.3044E-11, -2.38E-13, -6.7E-14, 2.38E-13, 6.7E-14, 2.3044E-11
DataValue, -0.68, 0.1, 2.2449000000000002E-11, -5.8E-14, -1.7800000000000002E-13, 5.8E-14, 1.7800000000000002E-13, 2.2449000000000002E-11
DataValue, -0.66, 0.1, 4.9751000000000005E-11, -1.5500000000000002E-13, -1.41E-13, 1.5500000000000002E-13, 1.41E-13, 4.9751000000000005E-11
DataValue, -0.64, 0.1, 6.1055E-11, -1.88E-13, 1.456E-12, 1.88E-13, 1.456E-12, 6.1055E-11
DataValue, -0.62, 0.1, 1.2644200000000002E-10, -1.88E-13, -1.9800000000000002E-13, 1.88E-13, 1.9800000000000002E-13, 1.2644200000000002E-10
DataValue, -0.6, 0.1, 4.5541E-11, -3.9000000000000004E-14, -1.06E-13, 3.9000000000000004E-14, 1.06E-13, 4.5541E-11
DataValue, -0.58000000000000007, 0.1, 3.9457000000000005E-11, 1.6E-14, -1.1000000000000001E-13, 1.6E-14, 1.1000000000000001E-13, 3.9457000000000005E-11
DataValue, -0.56, 0.1, 4.9453E-11, 1.1500000000000002E-13, -3.18E-13, 1.1500000000000002E-13, 3.18E-13, 4.9453E-11
DataValue, -0.54, 0.1, 8.166E-12, 3.6900000000000004E-13, -4.3100000000000003E-13, 3.6900000000000004E-13, 4.3100000000000003E-13, 8.166E-12
DataValue, -0.52, 0.1, 2.2802000000000002E-11, 7.1500000000000008E-13, -8.070000000000001E-13, 7.1500000000000008E-13, 8.070000000000001E-13, 2.2802000000000002E-11
DataValue, -0.5, 0.1, 3.7649000000000005E-11, 1.4E-12, -1.554E-12, 1.4E-12, 1.554E-12, 3.7649000000000005E-11
DataValue, -0.48000000000000004, 0.1, 4.4431000000000004E-11, 2.687E-12, -2.828E-12, 2.687E-12, 2.828E-12, 4.4431000000000004E-11
DataValue, -0.46, 0.1, 4.7878E-11, 5.117E-12, -5.274E-12, 5.117E-12, 5.274E-12, 4.7878E-11
DataValue, -0.44, 0.1, 5.0488000000000007E-11, 9.6550000000000012E-12, -9.824E-12, 9.6550000000000012E-12, 9.824E-12, 5.0488000000000007E-11
DataValue, -0.42000000000000004, 0.1, 1.4910000000000002E-12, 1.8239E-11, -1.8202E-11, 1.8239E-11, 1.8202E-11, 1.4910000000000002E-12
DataValue, -0.4, 0.1, 2.6273000000000003E-11, 3.4069E-11, -3.4027000000000004E-11, 3.4069E-11, 3.4027000000000004E-11, 2.6273000000000003E-11
DataValue, -0.38, 0.1, 3.5472000000000006E-11, 6.4035E-11, -6.4046E-11, 6.4035E-11, 6.4046E-11, 3.5472000000000006E-11
DataValue, -0.36000000000000004, 0.1, 4.1151000000000003E-11, 1.1982400000000001E-10, -1.19271E-10, 1.1982400000000001E-10, 1.19271E-10, 4.1151000000000003E-11
DataValue, -0.34, 0.1, 4.8915000000000006E-11, 2.2533100000000002E-10, -2.2434200000000002E-10, 2.2533100000000002E-10, 2.2434200000000002E-10, 4.8915000000000006E-11
DataValue, -0.32, 0.1, 4.9934000000000004E-11, 4.2048000000000003E-10, -4.1872700000000004E-10, 4.2048000000000003E-10, 4.1872700000000004E-10, 4.9934000000000004E-11
DataValue, -0.3, 0.1, 1.0236200000000001E-10, 7.80834E-10, -7.7869400000000006E-10, 7.80834E-10, 7.7869400000000006E-10, 1.0236200000000001E-10
DataValue, -0.28, 0.1, 6.8724E-11, 1.43752E-09, -1.4366E-09, 1.43752E-09, 1.4366E-09, 6.8724E-11
DataValue, -0.26, 0.1, 3.0420000000000003E-11, 2.66847E-09, -2.66767E-09, 2.66847E-09, 2.66767E-09, 3.0420000000000003E-11
DataValue, -0.24000000000000002, 0.1, 4.6193000000000004E-11, 4.88889E-09, -4.8728999999999996E-09, 4.88889E-09, 4.8728999999999996E-09, 4.6193000000000004E-11
DataValue, -0.22, 0.1, 1.0207500000000001E-10, 8.77142E-09, -8.77264E-09, 8.77142E-09, 8.77264E-09, 1.0207500000000001E-10
DataValue, -0.2, 0.1, 8.2199E-11, 1.53538E-08, -1.53103E-08, 1.53538E-08, 1.53103E-08, 8.2199E-11
DataValue, -0.18000000000000002, 0.1, 7.3999000000000007E-11, 2.6400599999999998E-08, -2.6391299999999998E-08, 2.6400599999999998E-08, 2.6391299999999998E-08, 7.3999000000000007E-11
DataValue, -0.16, 0.1, 7.5389E-11, 4.42898E-08, -4.4205299999999994E-08, 4.42898E-08, 4.4205299999999994E-08, 7.5389E-11
DataValue, -0.14, 0.1, 1.4544600000000002E-10, 7.18081E-08, -7.1781099999999992E-08, 7.18081E-08, 7.1781099999999992E-08, 1.4544600000000002E-10
DataValue, -0.12000000000000001, 0.1, 1.1955600000000002E-10, 1.1276439999999999E-07, -1.1258239999999999E-07, 1.1276439999999999E-07, 1.1258239999999999E-07, 1.1955600000000002E-10
DataValue, -0.1, 0.1, 5.6112000000000005E-11, 1.7069899999999999E-07, -1.70177E-07, 1.7069899999999999E-07, 1.70177E-07, 5.6112000000000005E-11
DataValue, -0.08, 0.1, 4.9568000000000005E-11, 2.5089499999999997E-07, -2.50788E-07, 2.5089499999999997E-07, 2.50788E-07, 4.9568000000000005E-11
DataValue, -0.060000000000000005, 0.1, 4.6687E-11, 3.56924E-07, -3.56247E-07, 3.56924E-07, 3.56247E-07, 4.6687E-11
DataValue, -0.04, 0.1, 3.3089000000000003E-11, 4.93064E-07, -4.92657E-07, 4.93064E-07, 4.92657E-07, 3.3089000000000003E-11
DataValue, -0.02, 0.1, 5.2818000000000007E-11, 6.61988E-07, -6.61574E-07, 6.61988E-07, 6.61574E-07, 5.2818000000000007E-11
DataValue, 0, 0.1, 1.8361000000000003E-10, 8.70206E-07, -8.6976999999999993E-07, 8.70206E-07, 8.6976999999999993E-07, 1.8361000000000003E-10
DataValue, 0.02, 0.1, 1.40829E-10, 1.119233E-06, -1.119752E-06, 1.119233E-06, 1.119752E-06, 1.40829E-10
DataValue, 0.04, 0.1, 5.335E-11, 1.4032600000000001E-06, -1.4010600000000002E-06, 1.4032600000000001E-06, 1.4010600000000002E-06, 5.335E-11
DataValue, 0.060000000000000005, 0.1, 5.7652000000000007E-11, 1.7344500000000002E-06, -1.7346200000000002E-06, 1.7344500000000002E-06, 1.7346200000000002E-06, 5.7652000000000007E-11
