
SetupTitle, ITO_IdVG
PrimitiveTest, I/V Sweep
TestParameter, Context.MainFrame, 4156C
TestParameter, Channel.UnitType, SMU, SMU, SMU
TestParameter, Channel.Unit, SMU2:HR, SMU1:HR, SMU4:HR
TestParameter, Channel.IName, Ig, Id, Is
TestParameter, Channel.VName, Vg, Vd, Vs
TestParameter, Channel.Mode, V, V, COMMON
TestParameter, Channel.Func, VAR1, CONST, CONST
TestParameter, Channel.Index, 
TestParameter, Channel.Time, 
TestParameter, Measurement.Port.Unit, SMU2:HR, SMU1:HR, SMU4:HR
TestParameter, Measurement.Port.SeriesResistor, NONE, NONE, NONE
TestParameter, Measurement.Port.Filter, ON, ON, ON
TestParameter, Measurement.Primary.Locus, Double
TestParameter, Measurement.Primary.Scale, LINEAR
TestParameter, Measurement.Primary.Start, -2
TestParameter, Measurement.Primary.Stop, 2
TestParameter, Measurement.Primary.Step, 0.02
TestParameter, Measurement.Primary.Compliance, 0.1
TestParameter, Measurement.Primary.PowerCompliance, 0
TestParameter, Measurement.Aborting.Condition, CONTINUE AT ANY
TestParameter, Measurement.PostOutput.Value, START
TestParameter, Measurement.PostOutput.Retention, OFF
TestParameter, Measurement.Bias.Source, -2, 0.1, 0
TestParameter, Measurement.Bias.Compliance, 0.1, 0.1, 0.1
TestParameter, Measurement.Monitor.Unit, SMU2:HR, SMU1:HR, SMU4:HR
TestParameter, Measurement.Monitor.Adc, HR ADC, HR ADC, HR ADC
TestParameter, Measurement.Monitor.RangingMode, LIMITED, LIMITED, LIMITED
TestParameter, Measurement.Monitor.RangeBoundary, 1nA, 1nA, 1nA
TestParameter, Measurement.Monitor.RangeRating, BY FULL RANGE, BY FULL RANGE, BY FULL RANGE
TestParameter, Measurement.Monitor.RangeRatingCoeff, 50, 50, 50
TestParameter, Measurement.Timing.Hold, 0
TestParameter, Measurement.Timing.Delay, 0.05
TestParameter, Measurement.Adc.HighResolution.AutoZero, OFF
TestParameter, Measurement.Adc.HighResolution.Mode, AUTO
TestParameter, Measurement.Adc.HighResolution.Coeff, 1
TestParameter, Measurement.Ag16440ASelector.SemiconductorRelay.Channel1, DEFAULT
TestParameter, Measurement.Ag16440ASelector.SemiconductorRelay.Channel3, DEFAULT
TestParameter, Function.User.Name, absId, absIs, absIg
TestParameter, Function.User.Unit, A, A, A
TestParameter, Function.User.Definition, abs(Id), abs(Is), abs(Ig)
TestParameter, Output.Graph.Enabled, true
TestParameter, Output.Graph.XAxis.Data, Vg
TestParameter, Output.Graph.XAxis.Scale, Linear
TestParameter, Output.Graph.XAxis.Left, -2
TestParameter, Output.Graph.XAxis.Right, 2
TestParameter, Output.Graph.YAxis.Data, absId, absIs, absIg
TestParameter, Output.Graph.YAxis.Scale, Log, Log, Log
TestParameter, Output.Graph.YAxis.Bottom, 1E-15, 1E-15, 1E-15
TestParameter, Output.Graph.YAxis.Top, 0.1, 0.1, 0.1
TestParameter, Output.Graph.YAxis.Group, , , 
TestParameter, Output.List.Data, Vg, Vd, Id, Is, Ig
TestParameter, AutoAnalysis.Interpolation, false
TestParameter, AutoAnalysis.Line1.Enabled, false
TestParameter, AutoAnalysis.Line1.Type, 1
TestParameter, AutoAnalysis.Line1.Fix, True
TestParameter, AutoAnalysis.Line1.YAxis, 0
TestParameter, AutoAnalysis.Line1.Point1.Type, 0
TestParameter, AutoAnalysis.Line1.Point1.XY.X, 
TestParameter, AutoAnalysis.Line1.Point1.XY.Y, 
TestParameter, AutoAnalysis.Line1.Point1.Data.Var, 
TestParameter, AutoAnalysis.Line1.Point1.Data.Condition, 
TestParameter, AutoAnalysis.Line1.Point1.Data.Start, false
TestParameter, AutoAnalysis.Line1.Point1.Data.StartVar, 
TestParameter, AutoAnalysis.Line1.Point1.Data.StartCondition, 
TestParameter, AutoAnalysis.Line1.Point2.Type, 0
TestParameter, AutoAnalysis.Line1.Point2.XY.X, 
TestParameter, AutoAnalysis.Line1.Point2.XY.Y, 
TestParameter, AutoAnalysis.Line1.Point2.Data.Var, 
TestParameter, AutoAnalysis.Line1.Point2.Data.Condition, 
TestParameter, AutoAnalysis.Line1.Point2.Data.Start, false
TestParameter, AutoAnalysis.Line1.Point2.Data.StartVar, 
TestParameter, AutoAnalysis.Line1.Point2.Data.StartCondition, 
TestParameter, AutoAnalysis.Line1.GradientExpr, 0
TestParameter, AutoAnalysis.Line2.Enabled, false
TestParameter, AutoAnalysis.Line2.Type, 1
TestParameter, AutoAnalysis.Line2.Fix, True
TestParameter, AutoAnalysis.Line2.YAxis, 0
TestParameter, AutoAnalysis.Line2.Point1.Type, 0
TestParameter, AutoAnalysis.Line2.Point1.XY.X, 
TestParameter, AutoAnalysis.Line2.Point1.XY.Y, 
TestParameter, AutoAnalysis.Line2.Point1.Data.Var, 
TestParameter, AutoAnalysis.Line2.Point1.Data.Condition, 
TestParameter, AutoAnalysis.Line2.Point1.Data.Start, false
TestParameter, AutoAnalysis.Line2.Point1.Data.StartVar, 
TestParameter, AutoAnalysis.Line2.Point1.Data.StartCondition, 
TestParameter, AutoAnalysis.Line2.Point2.Type, 0
TestParameter, AutoAnalysis.Line2.Point2.XY.X, 
TestParameter, AutoAnalysis.Line2.Point2.XY.Y, 
TestParameter, AutoAnalysis.Line2.Point2.Data.Var, 
TestParameter, AutoAnalysis.Line2.Point2.Data.Condition, 
TestParameter, AutoAnalysis.Line2.Point2.Data.Start, false
TestParameter, AutoAnalysis.Line2.Point2.Data.StartVar, 
TestParameter, AutoAnalysis.Line2.Point2.Data.StartCondition, 
TestParameter, AutoAnalysis.Line2.GradientExpr, 0
TestParameter, AutoAnalysis.Marker.Enabled, false
TestParameter, AutoAnalysis.Marker.Data.Var, 
TestParameter, AutoAnalysis.Marker.Data.Condition, 
TestParameter, AutoAnalysis.Marker.Data.Start, false
TestParameter, AutoAnalysis.Marker.Data.StartVar, 
TestParameter, AutoAnalysis.Marker.Data.StartCondition, 
MetaData, TestRecord.EntryPoint, true
MetaData, TestRecord.RecordTime, 12/18/2022 13:33:51
MetaData, TestRecord.TestTarget, 
MetaData, TestRecord.IterationIndex, 26
MetaData, TestRecord.Preservation, true
MetaData, TestRecord.Flag, 
MetaData, TestRecord.Remarks, RoomT measurement for 2R sample
MetaData, TestRecord.LinkKey, 7dfb71f0-e219-4a92-a8ef-cc5f8f3591ea
Dimension1, 402, 402, 402, 402, 402, 402, 402, 402
Dimension2, 1, 1, 1, 1, 1, 1, 1, 1
DataName, Vg, Vd, Ig, Id, Is, absId, absIs, absIg
DataValue, -2, 0.1, -1.28477E-10, 3.8300000000000003E-13, 3.75E-13, 3.8300000000000003E-13, 3.75E-13, 1.28477E-10
DataValue, -1.9800000000000002, 0.1, -1.01751E-10, 2.9800000000000004E-13, 2.9700000000000005E-13, 2.9800000000000004E-13, 2.9700000000000005E-13, 1.01751E-10
DataValue, -1.9600000000000002, 0.1, -8.8819E-11, 2.6E-13, 2.8900000000000003E-13, 2.6E-13, 2.8900000000000003E-13, 8.8819E-11
DataValue, -1.9400000000000002, 0.1, -8.6483000000000008E-11, 2.1400000000000002E-13, 2.5300000000000003E-13, 2.1400000000000002E-13, 2.5300000000000003E-13, 8.6483000000000008E-11
DataValue, -1.9200000000000002, 0.1, -8.172E-11, 2.1900000000000003E-13, 2.2500000000000003E-13, 2.1900000000000003E-13, 2.2500000000000003E-13, 8.172E-11
DataValue, -1.9000000000000001, 0.1, -7.6724E-11, 2E-13, 1.81E-13, 2E-13, 1.81E-13, 7.6724E-11
DataValue, -1.8800000000000001, 0.1, -7.2197000000000007E-11, 1.71E-13, 2.18E-13, 1.71E-13, 2.18E-13, 7.2197000000000007E-11
DataValue, -1.86, 0.1, -6.8267E-11, 1.5000000000000002E-13, 1.9500000000000003E-13, 1.5000000000000002E-13, 1.9500000000000003E-13, 6.8267E-11
DataValue, -1.84, 0.1, -6.6054E-11, 1.53E-13, 1.59E-13, 1.53E-13, 1.59E-13, 6.6054E-11
DataValue, -1.82, 0.1, -6.3055000000000009E-11, 1.4E-13, 1.6000000000000003E-13, 1.4E-13, 1.6000000000000003E-13, 6.3055000000000009E-11
DataValue, -1.8, 0.1, -6.2306000000000007E-11, 1.12E-13, 1.59E-13, 1.12E-13, 1.59E-13, 6.2306000000000007E-11
DataValue, -1.78, 0.1, -6.030700000000001E-11, 1.24E-13, 1.12E-13, 1.24E-13, 1.12E-13, 6.030700000000001E-11
DataValue, -1.76, 0.1, -6.0859E-11, 1.0100000000000001E-13, 1.2100000000000002E-13, 1.0100000000000001E-13, 1.2100000000000002E-13, 6.0859E-11
DataValue, -1.74, 0.1, -5.8567000000000011E-11, 1.0700000000000001E-13, 1.53E-13, 1.0700000000000001E-13, 1.53E-13, 5.8567000000000011E-11
DataValue, -1.72, 0.1, -5.4469000000000005E-11, 9.9000000000000007E-14, 1.0400000000000001E-13, 9.9000000000000007E-14, 1.0400000000000001E-13, 5.4469000000000005E-11
DataValue, -1.7000000000000002, 0.1, -5.2678E-11, 7.9E-14, 1.2100000000000002E-13, 7.9E-14, 1.2100000000000002E-13, 5.2678E-11
DataValue, -1.6800000000000002, 0.1, -5.0978000000000004E-11, 7.3E-14, 9.3000000000000008E-14, 7.3E-14, 9.3000000000000008E-14, 5.0978000000000004E-11
DataValue, -1.6600000000000001, 0.1, -4.9022000000000007E-11, 6.9000000000000009E-14, 7.7E-14, 6.9000000000000009E-14, 7.7E-14, 4.9022000000000007E-11
DataValue, -1.6400000000000001, 0.1, -4.6190000000000004E-11, 6.4E-14, 8.0000000000000013E-14, 6.4E-14, 8.0000000000000013E-14, 4.6190000000000004E-11
DataValue, -1.62, 0.1, -4.3350000000000004E-11, 3.0000000000000005E-14, 8.4000000000000008E-14, 3.0000000000000005E-14, 8.4000000000000008E-14, 4.3350000000000004E-11
DataValue, -1.6, 0.1, -4.0902E-11, 4.9000000000000006E-14, 8.1000000000000008E-14, 4.9000000000000006E-14, 8.1000000000000008E-14, 4.0902E-11
DataValue, -1.58, 0.1, -3.9309E-11, 4.1E-14, 7.3E-14, 4.1E-14, 7.3E-14, 3.9309E-11
DataValue, -1.56, 0.1, -3.6114E-11, 4.0000000000000006E-14, 7.2000000000000009E-14, 4.0000000000000006E-14, 7.2000000000000009E-14, 3.6114E-11
DataValue, -1.54, 0.1, -3.3338E-11, 2.2E-14, 5.4000000000000003E-14, 2.2E-14, 5.4000000000000003E-14, 3.3338E-11
DataValue, -1.52, 0.1, -2.9566000000000005E-11, 9.0000000000000011E-15, 4.8000000000000004E-14, 9.0000000000000011E-15, 4.8000000000000004E-14, 2.9566000000000005E-11
DataValue, -1.5, 0.1, -2.6077000000000002E-11, 2.7000000000000002E-14, 3.7E-14, 2.7000000000000002E-14, 3.7E-14, 2.6077000000000002E-11
DataValue, -1.48, 0.1, -2.3084E-11, 4E-15, 5.6E-14, 4E-15, 5.6E-14, 2.3084E-11
DataValue, -1.46, 0.1, -2.0355E-11, 4E-15, 4.2000000000000004E-14, 4E-15, 4.2000000000000004E-14, 2.0355E-11
DataValue, -1.4400000000000002, 0.1, -1.7992000000000002E-11, 9.0000000000000011E-15, 1.5000000000000002E-14, 9.0000000000000011E-15, 1.5000000000000002E-14, 1.7992000000000002E-11
DataValue, -1.4200000000000002, 0.1, -1.5748000000000003E-11, -1.6E-14, 1.5000000000000002E-14, 1.6E-14, 1.5000000000000002E-14, 1.5748000000000003E-11
DataValue, -1.4000000000000001, 0.1, -1.3664000000000002E-11, 2E-15, 2.7000000000000002E-14, 2E-15, 2.7000000000000002E-14, 1.3664000000000002E-11
DataValue, -1.3800000000000001, 0.1, -1.2652E-11, 2.4000000000000002E-14, 3.1E-14, 2.4000000000000002E-14, 3.1E-14, 1.2652E-11
DataValue, -1.36, 0.1, -1.1127000000000001E-11, -2E-15, 2.0000000000000003E-14, 2E-15, 2.0000000000000003E-14, 1.1127000000000001E-11
DataValue, -1.34, 0.1, -9.8490000000000014E-12, -1.8000000000000002E-14, 1.2000000000000001E-14, 1.8000000000000002E-14, 1.2000000000000001E-14, 9.8490000000000014E-12
DataValue, -1.32, 0.1, -8.7580000000000013E-12, -8E-15, 7E-15, 8E-15, 7E-15, 8.7580000000000013E-12
DataValue, -1.3, 0.1, -7.306E-12, -1.4E-14, 2.1000000000000002E-14, 1.4E-14, 2.1000000000000002E-14, 7.306E-12
DataValue, -1.28, 0.1, -6.069E-12, -1E-15, 2E-15, 1E-15, 2E-15, 6.069E-12
DataValue, -1.26, 0.1, -5.135E-12, 5.0000000000000008E-15, 2.2E-14, 5.0000000000000008E-15, 2.2E-14, 5.135E-12
DataValue, -1.24, 0.1, -4.23E-12, -8E-15, 1.0000000000000002E-14, 8E-15, 1.0000000000000002E-14, 4.23E-12
DataValue, -1.22, 0.1, -3.2120000000000004E-12, -1.5000000000000002E-14, 1.3000000000000001E-14, 1.5000000000000002E-14, 1.3000000000000001E-14, 3.2120000000000004E-12
DataValue, -1.2, 0.1, -2.5720000000000003E-12, -2.3000000000000003E-14, -4E-15, 2.3000000000000003E-14, 4E-15, 2.5720000000000003E-12
DataValue, -1.1800000000000002, 0.1, -2.009E-12, 2E-15, 6.0000000000000005E-15, 2E-15, 6.0000000000000005E-15, 2.009E-12
DataValue, -1.1600000000000001, 0.1, -1.5970000000000002E-12, -3.2E-14, 1E-15, 3.2E-14, 1E-15, 1.5970000000000002E-12
DataValue, -1.1400000000000001, 0.1, -1.264E-12, -2.2E-14, -8E-15, 2.2E-14, 8E-15, 1.264E-12
DataValue, -1.12, 0.1, -1.0350000000000001E-12, -1.3000000000000001E-14, 6.0000000000000005E-15, 1.3000000000000001E-14, 6.0000000000000005E-15, 1.0350000000000001E-12
DataValue, -1.1, 0.1, -7.78E-13, -2.8E-14, -1E-15, 2.8E-14, 1E-15, 7.78E-13
DataValue, -1.08, 0.1, -5.9400000000000009E-13, -2.9E-14, -2.0000000000000003E-14, 2.9E-14, 2.0000000000000003E-14, 5.9400000000000009E-13
DataValue, -1.06, 0.1, -4.74E-13, -2.5E-14, 2E-15, 2.5E-14, 2E-15, 4.74E-13
DataValue, -1.04, 0.1, -3.07E-13, -5.4000000000000003E-14, -2.9E-14, 5.4000000000000003E-14, 2.9E-14, 3.07E-13
DataValue, -1.02, 0.1, -2.38E-13, -3.0000000000000005E-14, -9.0000000000000011E-15, 3.0000000000000005E-14, 9.0000000000000011E-15, 2.38E-13
DataValue, -1, 0.1, -1.5000000000000002E-13, -1.1E-14, -7E-15, 1.1E-14, 7E-15, 1.5000000000000002E-13
DataValue, -0.98000000000000009, 0.1, -9.4E-14, -2.9E-14, 9.0000000000000011E-15, 2.9E-14, 9.0000000000000011E-15, 9.4E-14
DataValue, -0.96000000000000008, 0.1, -3.4E-14, -3.8E-14, -1.2000000000000001E-14, 3.8E-14, 1.2000000000000001E-14, 3.4E-14
DataValue, -0.94000000000000006, 0.1, 2.8E-14, -2.4000000000000002E-14, 1.6E-14, 2.4000000000000002E-14, 1.6E-14, 2.8E-14
DataValue, -0.92, 0.1, 5.4000000000000003E-14, -3.0000000000000005E-14, 4E-15, 3.0000000000000005E-14, 4E-15, 5.4000000000000003E-14
DataValue, -0.9, 0.1, 7.9E-14, -3.4E-14, -1.3000000000000001E-14, 3.4E-14, 1.3000000000000001E-14, 7.9E-14
DataValue, -0.88, 0.1, 1.2100000000000002E-13, -4.1E-14, -1.8000000000000002E-14, 4.1E-14, 1.8000000000000002E-14, 1.2100000000000002E-13
DataValue, -0.86, 0.1, 1.54E-13, -4.1E-14, -3.0000000000000002E-15, 4.1E-14, 3.0000000000000002E-15, 1.54E-13
DataValue, -0.84000000000000008, 0.1, 1.9200000000000002E-13, -4.1E-14, -2.6000000000000003E-14, 4.1E-14, 2.6000000000000003E-14, 1.9200000000000002E-13
DataValue, -0.82000000000000006, 0.1, 2.5300000000000003E-13, -5.2000000000000006E-14, 7E-15, 5.2000000000000006E-14, 7E-15, 2.5300000000000003E-13
DataValue, -0.8, 0.1, 2.7500000000000004E-13, -4.1E-14, -2.9E-14, 4.1E-14, 2.9E-14, 2.7500000000000004E-13
DataValue, -0.78, 0.1, 3.4600000000000004E-13, -1.8000000000000002E-14, -1.5000000000000002E-14, 1.8000000000000002E-14, 1.5000000000000002E-14, 3.4600000000000004E-13
DataValue, -0.76, 0.1, 4.0300000000000005E-13, -1.6E-14, 0, 1.6E-14, 0, 4.0300000000000005E-13
DataValue, -0.74, 0.1, 5.62E-13, -2.0000000000000003E-14, 1.1E-14, 2.0000000000000003E-14, 1.1E-14, 5.62E-13
DataValue, -0.72000000000000008, 0.1, 6.53E-13, -2.8E-14, 0, 2.8E-14, 0, 6.53E-13
DataValue, -0.70000000000000007, 0.1, 7.8400000000000009E-13, -3.6000000000000004E-14, -1.9E-14, 3.6000000000000004E-14, 1.9E-14, 7.8400000000000009E-13
DataValue, -0.68, 0.1, 9.6200000000000014E-13, -4.0000000000000006E-14, -3.6000000000000004E-14, 4.0000000000000006E-14, 3.6000000000000004E-14, 9.6200000000000014E-13
DataValue, -0.66, 0.1, 1.209E-12, -5.1000000000000004E-14, -3.0000000000000002E-15, 5.1000000000000004E-14, 3.0000000000000002E-15, 1.209E-12
DataValue, -0.64, 0.1, 1.6090000000000001E-12, -4.5000000000000004E-14, -4E-15, 4.5000000000000004E-14, 4E-15, 1.6090000000000001E-12
DataValue, -0.62, 0.1, 1.8620000000000003E-12, -3.2E-14, -3.2E-14, 3.2E-14, 3.2E-14, 1.8620000000000003E-12
DataValue, -0.6, 0.1, 2.231E-12, -4.7E-14, -2.6000000000000003E-14, 4.7E-14, 2.6000000000000003E-14, 2.231E-12
DataValue, -0.58000000000000007, 0.1, 2.7510000000000003E-12, -5.6E-14, -4.0000000000000006E-14, 5.6E-14, 4.0000000000000006E-14, 2.7510000000000003E-12
DataValue, -0.56, 0.1, 3.209E-12, -5E-14, -3.3000000000000005E-14, 5E-14, 3.3000000000000005E-14, 3.209E-12
DataValue, -0.54, 0.1, 4.3320000000000005E-12, 1.1E-14, 1E-15, 1.1E-14, 1E-15, 4.3320000000000005E-12
DataValue, -0.52, 0.1, 3.606E-12, -1.8000000000000002E-14, -8E-15, 1.8000000000000002E-14, 8E-15, 3.606E-12
DataValue, -0.5, 0.1, 4.0580000000000007E-12, -2.7000000000000002E-14, -9.0000000000000011E-15, 2.7000000000000002E-14, 9.0000000000000011E-15, 4.0580000000000007E-12
DataValue, -0.48000000000000004, 0.1, 4.578E-12, -1.8000000000000002E-14, 3.0000000000000002E-15, 1.8000000000000002E-14, 3.0000000000000002E-15, 4.578E-12
DataValue, -0.46, 0.1, 5.3630000000000005E-12, -3.5E-14, -3.1E-14, 3.5E-14, 3.1E-14, 5.3630000000000005E-12
DataValue, -0.44, 0.1, 6.118E-12, -2.5E-14, -1.0000000000000002E-14, 2.5E-14, 1.0000000000000002E-14, 6.118E-12
DataValue, -0.42000000000000004, 0.1, 6.7380000000000006E-12, -2.4000000000000002E-14, -1.0000000000000002E-14, 2.4000000000000002E-14, 1.0000000000000002E-14, 6.7380000000000006E-12
DataValue, -0.4, 0.1, 7.5250000000000012E-12, -1.7E-14, -1.0000000000000002E-14, 1.7E-14, 1.0000000000000002E-14, 7.5250000000000012E-12
DataValue, -0.38, 0.1, 8.4970000000000015E-12, -3.3000000000000005E-14, -5.5000000000000005E-14, 3.3000000000000005E-14, 5.5000000000000005E-14, 8.4970000000000015E-12
DataValue, -0.36000000000000004, 0.1, 9.6750000000000015E-12, -2.5E-14, -3.9000000000000004E-14, 2.5E-14, 3.9000000000000004E-14, 9.6750000000000015E-12
DataValue, -0.34, 0.1, 1.0763E-11, 1.4E-14, -6.3000000000000009E-14, 1.4E-14, 6.3000000000000009E-14, 1.0763E-11
DataValue, -0.32, 0.1, 1.1817000000000001E-11, 4.8000000000000004E-14, -9.6000000000000007E-14, 4.8000000000000004E-14, 9.6000000000000007E-14, 1.1817000000000001E-11
DataValue, -0.3, 0.1, 1.2941000000000002E-11, 1.93E-13, -2.18E-13, 1.93E-13, 2.18E-13, 1.2941000000000002E-11
DataValue, -0.28, 0.1, 1.4684E-11, 3.64E-13, -4.33E-13, 3.64E-13, 4.33E-13, 1.4684E-11
DataValue, -0.26, 0.1, 1.5953E-11, 7.98E-13, -8.8500000000000007E-13, 7.98E-13, 8.8500000000000007E-13, 1.5953E-11
DataValue, -0.24000000000000002, 0.1, 1.7108000000000002E-11, 1.7700000000000001E-12, -1.829E-12, 1.7700000000000001E-12, 1.829E-12, 1.7108000000000002E-11
DataValue, -0.22, 0.1, 1.8359000000000003E-11, 3.676E-12, -3.704E-12, 3.676E-12, 3.704E-12, 1.8359000000000003E-11
DataValue, -0.2, 0.1, 1.9779000000000003E-11, 7.7120000000000011E-12, -7.734E-12, 7.7120000000000011E-12, 7.734E-12, 1.9779000000000003E-11
DataValue, -0.18000000000000002, 0.1, 2.0271E-11, 1.5829E-11, -1.5788E-11, 1.5829E-11, 1.5788E-11, 2.0271E-11
DataValue, -0.16, 0.1, 2.1629000000000002E-11, 3.278E-11, -3.2956E-11, 3.278E-11, 3.2956E-11, 2.1629000000000002E-11
DataValue, -0.14, 0.1, 2.2533000000000002E-11, 6.8624E-11, -6.8229000000000011E-11, 6.8624E-11, 6.8229000000000011E-11, 2.2533000000000002E-11
DataValue, -0.12000000000000001, 0.1, 2.3393000000000003E-11, 1.44459E-10, -1.43468E-10, 1.44459E-10, 1.43468E-10, 2.3393000000000003E-11
DataValue, -0.1, 0.1, 2.3544000000000002E-11, 2.9631700000000004E-10, -2.95597E-10, 2.9631700000000004E-10, 2.95597E-10, 2.3544000000000002E-11
DataValue, -0.08, 0.1, 2.4540000000000003E-11, 6.20443E-10, -6.1602600000000006E-10, 6.20443E-10, 6.1602600000000006E-10, 2.4540000000000003E-11
DataValue, -0.060000000000000005, 0.1, 2.5212E-11, 1.27507E-09, -1.27745E-09, 1.27507E-09, 1.27745E-09, 2.5212E-11
DataValue, -0.04, 0.1, 2.5702000000000003E-11, 2.61656E-09, -2.60082E-09, 2.61656E-09, 2.60082E-09, 2.5702000000000003E-11
DataValue, -0.02, 0.1, 2.6257000000000002E-11, 5.19587E-09, -5.22884E-09, 5.19587E-09, 5.22884E-09, 2.6257000000000002E-11
DataValue, 0, 0.1, 2.5957000000000003E-11, 1.019301E-08, -1.019763E-08, 1.019301E-08, 1.019763E-08, 2.5957000000000003E-11
DataValue, 0.02, 0.1, 2.6490000000000004E-11, 1.9279499999999997E-08, -1.9350099999999997E-08, 1.9279499999999997E-08, 1.9350099999999997E-08, 2.6490000000000004E-11
DataValue, 0.04, 0.1, 2.6482000000000003E-11, 3.49724E-08, -3.4902E-08, 3.49724E-08, 3.4902E-08, 2.6482000000000003E-11
DataValue, 0.060000000000000005, 0.1, 2.7179E-11, 5.99763E-08, -6.0026899999999993E-08, 5.99763E-08, 6.0026899999999993E-08, 2.7179E-11
DataValue, 0.08, 0.1, 2.7321E-11, 9.9042199999999992E-08, -9.9265299999999986E-08, 9.9042199999999992E-08, 9.9265299999999986E-08, 2.7321E-11
DataValue, 0.1, 0.1, 2.6338000000000002E-11, 1.55371E-07, -1.54286E-07, 1.55371E-07, 1.54286E-07, 2.6338000000000002E-11
DataValue, 0.12000000000000001, 0.1, 2.7327E-11, 2.33992E-07, -2.33955E-07, 2.33992E-07, 2.33955E-07, 2.7327E-11
