
SetupTitle, ITO_IdVG
PrimitiveTest, I/V Sweep
TestParameter, Context.MainFrame, 4156C
TestParameter, Channel.UnitType, SMU, SMU, SMU
TestParameter, Channel.Unit, SMU3:HR, SMU1:HR, SMU4:HR
TestParameter, Channel.IName, Ig, Id, Is
TestParameter, Channel.VName, Vg, Vd, Vs
TestParameter, Channel.Mode, V, V, COMMON
TestParameter, Channel.Func, VAR1, CONST, CONST
TestParameter, Channel.Index, 
TestParameter, Channel.Time, 
TestParameter, Measurement.Port.Unit, SMU3:HR, SMU1:HR, SMU4:HR
TestParameter, Measurement.Port.SeriesResistor, NONE, NONE, NONE
TestParameter, Measurement.Port.Filter, ON, ON, ON
TestParameter, Measurement.Primary.Locus, Double
TestParameter, Measurement.Primary.Scale, LINEAR
TestParameter, Measurement.Primary.Start, -2
TestParameter, Measurement.Primary.Stop, 2
TestParameter, Measurement.Primary.Step, 0.02
TestParameter, Measurement.Primary.Compliance, 0.1
TestParameter, Measurement.Primary.PowerCompliance, 0
TestParameter, Measurement.Aborting.Condition, CONTINUE AT ANY
TestParameter, Measurement.PostOutput.Value, START
TestParameter, Measurement.PostOutput.Retention, OFF
TestParameter, Measurement.Bias.Source, -2, 0.1, 0
TestParameter, Measurement.Bias.Compliance, 0.1, 0.1, 0.1
TestParameter, Measurement.Monitor.Unit, SMU3:HR, SMU1:HR, SMU4:HR
TestParameter, Measurement.Monitor.Adc, HR ADC, HR ADC, HR ADC
TestParameter, Measurement.Monitor.RangingMode, LIMITED, LIMITED, LIMITED
TestParameter, Measurement.Monitor.RangeBoundary, 1nA, 1nA, 1nA
TestParameter, Measurement.Monitor.RangeRating, BY FULL RANGE, BY FULL RANGE, BY FULL RANGE
TestParameter, Measurement.Monitor.RangeRatingCoeff, 50, 50, 50
TestParameter, Measurement.Timing.Hold, 0
TestParameter, Measurement.Timing.Delay, 0.05
TestParameter, Measurement.Adc.HighResolution.AutoZero, OFF
TestParameter, Measurement.Adc.HighResolution.Mode, AUTO
TestParameter, Measurement.Adc.HighResolution.Coeff, 1
TestParameter, Measurement.Ag16440ASelector.SemiconductorRelay.Channel1, DEFAULT
TestParameter, Measurement.Ag16440ASelector.SemiconductorRelay.Channel3, DEFAULT
TestParameter, Function.User.Name, absId, absIs, absIg
TestParameter, Function.User.Unit, A, A, A
TestParameter, Function.User.Definition, abs(Id), abs(Is), abs(Ig)
TestParameter, Output.Graph.Enabled, true
TestParameter, Output.Graph.XAxis.Data, Vg
TestParameter, Output.Graph.XAxis.Scale, Linear
TestParameter, Output.Graph.XAxis.Left, -2
TestParameter, Output.Graph.XAxis.Right, 2
TestParameter, Output.Graph.YAxis.Data, absId, absIs, absIg
TestParameter, Output.Graph.YAxis.Scale, Log, Log, Log
TestParameter, Output.Graph.YAxis.Bottom, 1E-15, 1E-15, 1E-15
TestParameter, Output.Graph.YAxis.Top, 0.1, 0.1, 0.1
TestParameter, Output.Graph.YAxis.Group, , , 
TestParameter, Output.List.Data, Vg, Vd, Id, Is, Ig
TestParameter, AutoAnalysis.Interpolation, false
TestParameter, AutoAnalysis.Line1.Enabled, false
TestParameter, AutoAnalysis.Line1.Type, 1
TestParameter, AutoAnalysis.Line1.Fix, True
TestParameter, AutoAnalysis.Line1.YAxis, 0
TestParameter, AutoAnalysis.Line1.Point1.Type, 0
TestParameter, AutoAnalysis.Line1.Point1.XY.X, 
TestParameter, AutoAnalysis.Line1.Point1.XY.Y, 
TestParameter, AutoAnalysis.Line1.Point1.Data.Var, 
TestParameter, AutoAnalysis.Line1.Point1.Data.Condition, 
TestParameter, AutoAnalysis.Line1.Point1.Data.Start, false
TestParameter, AutoAnalysis.Line1.Point1.Data.StartVar, 
TestParameter, AutoAnalysis.Line1.Point1.Data.StartCondition, 
TestParameter, AutoAnalysis.Line1.Point2.Type, 0
TestParameter, AutoAnalysis.Line1.Point2.XY.X, 
TestParameter, AutoAnalysis.Line1.Point2.XY.Y, 
TestParameter, AutoAnalysis.Line1.Point2.Data.Var, 
TestParameter, AutoAnalysis.Line1.Point2.Data.Condition, 
TestParameter, AutoAnalysis.Line1.Point2.Data.Start, false
TestParameter, AutoAnalysis.Line1.Point2.Data.StartVar, 
TestParameter, AutoAnalysis.Line1.Point2.Data.StartCondition, 
TestParameter, AutoAnalysis.Line1.GradientExpr, 0
TestParameter, AutoAnalysis.Line2.Enabled, false
TestParameter, AutoAnalysis.Line2.Type, 1
TestParameter, AutoAnalysis.Line2.Fix, True
TestParameter, AutoAnalysis.Line2.YAxis, 0
TestParameter, AutoAnalysis.Line2.Point1.Type, 0
TestParameter, AutoAnalysis.Line2.Point1.XY.X, 
TestParameter, AutoAnalysis.Line2.Point1.XY.Y, 
TestParameter, AutoAnalysis.Line2.Point1.Data.Var, 
TestParameter, AutoAnalysis.Line2.Point1.Data.Condition, 
TestParameter, AutoAnalysis.Line2.Point1.Data.Start, false
TestParameter, AutoAnalysis.Line2.Point1.Data.StartVar, 
TestParameter, AutoAnalysis.Line2.Point1.Data.StartCondition, 
TestParameter, AutoAnalysis.Line2.Point2.Type, 0
TestParameter, AutoAnalysis.Line2.Point2.XY.X, 
TestParameter, AutoAnalysis.Line2.Point2.XY.Y, 
TestParameter, AutoAnalysis.Line2.Point2.Data.Var, 
TestParameter, AutoAnalysis.Line2.Point2.Data.Condition, 
TestParameter, AutoAnalysis.Line2.Point2.Data.Start, false
TestParameter, AutoAnalysis.Line2.Point2.Data.StartVar, 
TestParameter, AutoAnalysis.Line2.Point2.Data.StartCondition, 
TestParameter, AutoAnalysis.Line2.GradientExpr, 0
TestParameter, AutoAnalysis.Marker.Enabled, false
TestParameter, AutoAnalysis.Marker.Data.Var, 
TestParameter, AutoAnalysis.Marker.Data.Condition, 
TestParameter, AutoAnalysis.Marker.Data.Start, false
TestParameter, AutoAnalysis.Marker.Data.StartVar, 
TestParameter, AutoAnalysis.Marker.Data.StartCondition, 
MetaData, TestRecord.EntryPoint, true
MetaData, TestRecord.RecordTime, 12/18/2022 15:17:46
MetaData, TestRecord.TestTarget, 
MetaData, TestRecord.IterationIndex, 10
MetaData, TestRecord.Preservation, true
MetaData, TestRecord.Flag, 
MetaData, TestRecord.Remarks, T = -20C 2R sample
MetaData, TestRecord.LinkKey, d8b1a2d7-6e63-474f-8e87-b572426a25e9
Dimension1, 402, 402, 402, 402, 402, 402, 402, 402
Dimension2, 1, 1, 1, 1, 1, 1, 1, 1
DataName, Vg, Vd, Ig, Id, Is, absId, absIs, absIg
DataValue, -2, 0.1, -1.41051E-10, 1.9800000000000002E-13, 7.5E-13, 1.9800000000000002E-13, 7.5E-13, 1.41051E-10
DataValue, -1.9800000000000002, 0.1, -1.01282E-10, 1.24E-13, 2.43E-13, 1.24E-13, 2.43E-13, 1.01282E-10
DataValue, -1.9600000000000002, 0.1, -9.8272E-11, 1.2600000000000002E-13, 2.1500000000000002E-13, 1.2600000000000002E-13, 2.1500000000000002E-13, 9.8272E-11
DataValue, -1.9400000000000002, 0.1, -7.7247E-11, 9.6000000000000007E-14, -1.7E-14, 9.6000000000000007E-14, 1.7E-14, 7.7247E-11
DataValue, -1.9200000000000002, 0.1, -5.5990000000000005E-11, 8.8E-14, 1.4400000000000002E-13, 8.8E-14, 1.4400000000000002E-13, 5.5990000000000005E-11
DataValue, -1.9000000000000001, 0.1, -5.0996E-11, 7.3E-14, 1.64E-13, 7.3E-14, 1.64E-13, 5.0996E-11
DataValue, -1.8800000000000001, 0.1, -4.2338E-11, -1.5100000000000001E-13, 2.4000000000000004E-13, 1.5100000000000001E-13, 2.4000000000000004E-13, 4.2338E-11
DataValue, -1.86, 0.1, -3.7354E-11, 4.5000000000000004E-14, 1.24E-13, 4.5000000000000004E-14, 1.24E-13, 3.7354E-11
DataValue, -1.84, 0.1, -2.9454E-11, 2.3000000000000003E-14, 9.1E-14, 2.3000000000000003E-14, 9.1E-14, 2.9454E-11
DataValue, -1.82, 0.1, -2.4738000000000002E-11, -3.18E-13, 1.7200000000000002E-13, 3.18E-13, 1.7200000000000002E-13, 2.4738000000000002E-11
DataValue, -1.8, 0.1, -2.2656E-11, 2.8E-14, 8.3000000000000012E-14, 2.8E-14, 8.3000000000000012E-14, 2.2656E-11
DataValue, -1.78, 0.1, -1.9270000000000002E-11, 3.4E-14, 9.3000000000000008E-14, 3.4E-14, 9.3000000000000008E-14, 1.9270000000000002E-11
DataValue, -1.76, 0.1, -1.6308000000000002E-11, 2.2E-14, 8.2E-14, 2.2E-14, 8.2E-14, 1.6308000000000002E-11
DataValue, -1.74, 0.1, -1.4027E-11, 5.0000000000000008E-15, 9.0000000000000008E-14, 5.0000000000000008E-15, 9.0000000000000008E-14, 1.4027E-11
DataValue, -1.72, 0.1, -1.0946000000000001E-11, 5.0000000000000008E-15, 8.3000000000000012E-14, 5.0000000000000008E-15, 8.3000000000000012E-14, 1.0946000000000001E-11
DataValue, -1.7000000000000002, 0.1, -9.359E-12, -3.0200000000000003E-13, 1.0500000000000001E-13, 3.0200000000000003E-13, 1.0500000000000001E-13, 9.359E-12
DataValue, -1.6800000000000002, 0.1, -8.702E-12, -2E-15, 4.6000000000000006E-14, 2E-15, 4.6000000000000006E-14, 8.702E-12
DataValue, -1.6600000000000001, 0.1, -6.8000000000000009E-12, -9.0000000000000011E-15, 4.4E-14, 9.0000000000000011E-15, 4.4E-14, 6.8000000000000009E-12
DataValue, -1.6400000000000001, 0.1, -5.9120000000000007E-12, -3.3200000000000005E-13, 7.3E-14, 3.3200000000000005E-13, 7.3E-14, 5.9120000000000007E-12
DataValue, -1.62, 0.1, -5.4130000000000005E-12, -6.0000000000000005E-15, 3.9000000000000004E-14, 6.0000000000000005E-15, 3.9000000000000004E-14, 5.4130000000000005E-12
DataValue, -1.6, 0.1, -4.5790000000000006E-12, 1E-15, 2.9E-14, 1E-15, 2.9E-14, 4.5790000000000006E-12
DataValue, -1.58, 0.1, -3.744E-12, -7E-15, 4.2000000000000004E-14, 7E-15, 4.2000000000000004E-14, 3.744E-12
DataValue, -1.56, 0.1, -3.1270000000000003E-12, 4E-15, 3.4E-14, 4E-15, 3.4E-14, 3.1270000000000003E-12
DataValue, -1.54, 0.1, -2.724E-12, 1E-15, 4.0000000000000006E-14, 1E-15, 4.0000000000000006E-14, 2.724E-12
DataValue, -1.52, 0.1, -2.307E-12, -1.0000000000000002E-14, 1.8000000000000002E-14, 1.0000000000000002E-14, 1.8000000000000002E-14, 2.307E-12
DataValue, -1.5, 0.1, -1.864E-12, -1.0000000000000002E-14, 1.5000000000000002E-14, 1.0000000000000002E-14, 1.5000000000000002E-14, 1.864E-12
DataValue, -1.48, 0.1, -1.5550000000000001E-12, -2.1000000000000002E-14, 3.0000000000000005E-14, 2.1000000000000002E-14, 3.0000000000000005E-14, 1.5550000000000001E-12
DataValue, -1.46, 0.1, -1.2360000000000002E-12, -1.2000000000000001E-14, 8E-15, 1.2000000000000001E-14, 8E-15, 1.2360000000000002E-12
DataValue, -1.4400000000000002, 0.1, -9.36E-13, -3.0000000000000005E-14, 2.9E-14, 3.0000000000000005E-14, 2.9E-14, 9.36E-13
DataValue, -1.4200000000000002, 0.1, -7.33E-13, -3.2E-14, -4E-15, 3.2E-14, 4E-15, 7.33E-13
DataValue, -1.4000000000000001, 0.1, -5.61E-13, -4E-15, 1.8000000000000002E-14, 4E-15, 1.8000000000000002E-14, 5.61E-13
DataValue, -1.3800000000000001, 0.1, -4.1400000000000005E-13, -5.0000000000000008E-15, 1.0800000000000001E-13, 5.0000000000000008E-15, 1.0800000000000001E-13, 4.1400000000000005E-13
DataValue, -1.36, 0.1, -2.95E-13, -2.9E-14, 9.0000000000000011E-15, 2.9E-14, 9.0000000000000011E-15, 2.95E-13
DataValue, -1.34, 0.1, -2.38E-13, 1.2600000000000002E-13, 2.2E-14, 1.2600000000000002E-13, 2.2E-14, 2.38E-13
DataValue, -1.32, 0.1, -2.11E-13, -2.4000000000000002E-14, 1.7E-14, 2.4000000000000002E-14, 1.7E-14, 2.11E-13
DataValue, -1.3, 0.1, -1.57E-13, -2.1000000000000002E-14, 1.8000000000000002E-14, 2.1000000000000002E-14, 1.8000000000000002E-14, 1.57E-13
DataValue, -1.28, 0.1, -1.3900000000000001E-13, -1.5000000000000002E-14, 1.7E-14, 1.5000000000000002E-14, 1.7E-14, 1.3900000000000001E-13
DataValue, -1.26, 0.1, -9.1E-14, -5.8E-14, 4.8000000000000008E-13, 5.8E-14, 4.8000000000000008E-13, 9.1E-14
DataValue, -1.24, 0.1, -1E-13, -3.8E-14, 2.0000000000000003E-14, 3.8E-14, 2.0000000000000003E-14, 1E-13
DataValue, -1.22, 0.1, -5.1000000000000004E-14, -2.9E-14, 1.5000000000000002E-14, 2.9E-14, 1.5000000000000002E-14, 5.1000000000000004E-14
DataValue, -1.2, 0.1, -7.6E-14, -3.1E-14, -3.9500000000000003E-13, 3.1E-14, 3.9500000000000003E-13, 7.6E-14
DataValue, -1.1800000000000002, 0.1, -4.4E-14, -2.2E-14, 2.0000000000000003E-14, 2.2E-14, 2.0000000000000003E-14, 4.4E-14
DataValue, -1.1600000000000001, 0.1, -3.3000000000000005E-14, -4.7E-14, 5.0000000000000008E-15, 4.7E-14, 5.0000000000000008E-15, 3.3000000000000005E-14
DataValue, -1.1400000000000001, 0.1, -4.2000000000000004E-14, -5E-14, 2.4000000000000002E-14, 5E-14, 2.4000000000000002E-14, 4.2000000000000004E-14
DataValue, -1.12, 0.1, -2.2E-14, -2.3000000000000003E-14, 1.9E-14, 2.3000000000000003E-14, 1.9E-14, 2.2E-14
DataValue, -1.1, 0.1, -2.9E-14, -2.5E-14, 2.5E-14, 2.5E-14, 2.5E-14, 2.9E-14
DataValue, -1.08, 0.1, -1.7E-14, -4.0000000000000006E-14, 2E-15, 4.0000000000000006E-14, 2E-15, 1.7E-14
DataValue, -1.06, 0.1, 1.0000000000000002E-14, -3.7E-14, 7E-15, 3.7E-14, 7E-15, 1.0000000000000002E-14
DataValue, -1.04, 0.1, 3.5E-14, -4.5000000000000004E-14, -7E-15, 4.5000000000000004E-14, 7E-15, 3.5E-14
DataValue, -1.02, 0.1, 4.0000000000000006E-14, -3.1E-14, 7E-15, 3.1E-14, 7E-15, 4.0000000000000006E-14
DataValue, -1, 0.1, 1.17E-13, -3.1E-14, -1E-15, 3.1E-14, 1E-15, 1.17E-13
DataValue, -0.98000000000000009, 0.1, 1.41E-13, -2.4000000000000002E-14, -1.5000000000000002E-14, 2.4000000000000002E-14, 1.5000000000000002E-14, 1.41E-13
DataValue, -0.96000000000000008, 0.1, 1.69E-13, -3.4E-14, 2.9E-14, 3.4E-14, 2.9E-14, 1.69E-13
DataValue, -0.94000000000000006, 0.1, 2.71E-13, -2.5E-14, 1.3000000000000001E-14, 2.5E-14, 1.3000000000000001E-14, 2.71E-13
DataValue, -0.92, 0.1, 3.19E-13, -3.5E-14, 2.3000000000000003E-14, 3.5E-14, 2.3000000000000003E-14, 3.19E-13
DataValue, -0.9, 0.1, 5.0100000000000009E-13, -3.5E-14, 1.6E-14, 3.5E-14, 1.6E-14, 5.0100000000000009E-13
DataValue, -0.88, 0.1, 5.93E-13, -3.4E-14, 1.1E-14, 3.4E-14, 1.1E-14, 5.93E-13
DataValue, -0.86, 0.1, 9.44E-13, -4.7E-14, 1.4E-14, 4.7E-14, 1.4E-14, 9.44E-13
DataValue, -0.84000000000000008, 0.1, 1.2040000000000001E-12, -4.3000000000000006E-14, 2E-15, 4.3000000000000006E-14, 2E-15, 1.2040000000000001E-12
DataValue, -0.82000000000000006, 0.1, 1.494E-12, -1.6E-14, -1E-15, 1.6E-14, 1E-15, 1.494E-12
DataValue, -0.8, 0.1, 1.696E-12, -3.8E-14, -4E-15, 3.8E-14, 4E-15, 1.696E-12
DataValue, -0.78, 0.1, 2.059E-12, -4.0000000000000006E-14, 2.0000000000000003E-14, 4.0000000000000006E-14, 2.0000000000000003E-14, 2.059E-12
DataValue, -0.76, 0.1, 2.506E-12, -1.2000000000000001E-14, 6.0000000000000005E-15, 1.2000000000000001E-14, 6.0000000000000005E-15, 2.506E-12
DataValue, -0.74, 0.1, 3.0650000000000004E-12, -2.4000000000000002E-14, 7E-15, 2.4000000000000002E-14, 7E-15, 3.0650000000000004E-12
DataValue, -0.72000000000000008, 0.1, 3.776E-12, -3.8E-14, -8E-15, 3.8E-14, 8E-15, 3.776E-12
DataValue, -0.70000000000000007, 0.1, 4.485E-12, -3.5E-14, 9.0000000000000011E-15, 3.5E-14, 9.0000000000000011E-15, 4.485E-12
DataValue, -0.68, 0.1, 5.932E-12, -3.8E-14, 2.4000000000000002E-14, 3.8E-14, 2.4000000000000002E-14, 5.932E-12
DataValue, -0.66, 0.1, 7.0500000000000009E-12, -2.4000000000000002E-14, 2.4000000000000002E-14, 2.4000000000000002E-14, 2.4000000000000002E-14, 7.0500000000000009E-12
DataValue, -0.64, 0.1, 8.0020000000000008E-12, -1.7E-14, 8E-15, 1.7E-14, 8E-15, 8.0020000000000008E-12
DataValue, -0.62, 0.1, 8.314E-12, -3.5E-14, 2.1000000000000002E-14, 3.5E-14, 2.1000000000000002E-14, 8.314E-12
DataValue, -0.6, 0.1, 9.388E-12, -2.4000000000000002E-14, 0, 2.4000000000000002E-14, 0, 9.388E-12
DataValue, -0.58000000000000007, 0.1, 1.0566000000000002E-11, -5.2000000000000006E-14, 7E-15, 5.2000000000000006E-14, 7E-15, 1.0566000000000002E-11
DataValue, -0.56, 0.1, 1.2947000000000001E-11, -5.1000000000000004E-14, 3.4E-14, 5.1000000000000004E-14, 3.4E-14, 1.2947000000000001E-11
DataValue, -0.54, 0.1, 1.3990000000000002E-11, -2E-15, 6.0000000000000005E-15, 2E-15, 6.0000000000000005E-15, 1.3990000000000002E-11
DataValue, -0.52, 0.1, 1.4999E-11, -3.2E-14, 2E-15, 3.2E-14, 2E-15, 1.4999E-11
DataValue, -0.5, 0.1, 1.5326E-11, -1.4E-14, 3.0000000000000005E-14, 1.4E-14, 3.0000000000000005E-14, 1.5326E-11
DataValue, -0.48000000000000004, 0.1, 1.6087000000000003E-11, -3.2E-14, 1.3000000000000001E-14, 3.2E-14, 1.3000000000000001E-14, 1.6087000000000003E-11
DataValue, -0.46, 0.1, 1.6766000000000002E-11, -7.7E-14, 8E-15, 7.7E-14, 8E-15, 1.6766000000000002E-11
DataValue, -0.44, 0.1, 1.7174000000000003E-11, -1.4E-14, -1.2000000000000001E-14, 1.4E-14, 1.2000000000000001E-14, 1.7174000000000003E-11
DataValue, -0.42000000000000004, 0.1, 1.7418000000000002E-11, -5.5000000000000005E-14, 3.0000000000000005E-14, 5.5000000000000005E-14, 3.0000000000000005E-14, 1.7418000000000002E-11
DataValue, -0.4, 0.1, 1.779E-11, -3.7E-14, 2E-15, 3.7E-14, 2E-15, 1.779E-11
DataValue, -0.38, 0.1, 1.7847000000000002E-11, -8.9000000000000012E-14, 2.9E-14, 8.9000000000000012E-14, 2.9E-14, 1.7847000000000002E-11
DataValue, -0.36000000000000004, 0.1, 1.8042E-11, -1.1300000000000001E-13, 6.4E-14, 1.1300000000000001E-13, 6.4E-14, 1.8042E-11
DataValue, -0.34, 0.1, 1.8534E-11, -5.6E-14, -2.2E-14, 5.6E-14, 2.2E-14, 1.8534E-11
DataValue, -0.32, 0.1, 1.8445E-11, -1E-15, -2.5E-14, 1E-15, 2.5E-14, 1.8445E-11
DataValue, -0.3, 0.1, 1.8427E-11, -4.7E-14, -5.0000000000000008E-15, 4.7E-14, 5.0000000000000008E-15, 1.8427E-11
DataValue, -0.28, 0.1, 1.8620000000000003E-11, -2.0000000000000003E-14, -9.0000000000000011E-15, 2.0000000000000003E-14, 9.0000000000000011E-15, 1.8620000000000003E-11
DataValue, -0.26, 0.1, 1.8735E-11, -5.4000000000000003E-14, 0, 5.4000000000000003E-14, 0, 1.8735E-11
DataValue, -0.24000000000000002, 0.1, 1.8742000000000002E-11, -2.7000000000000002E-14, -3.0000000000000002E-15, 2.7000000000000002E-14, 3.0000000000000002E-15, 1.8742000000000002E-11
DataValue, -0.22, 0.1, 1.8657E-11, -3.7E-14, 2.18E-13, 3.7E-14, 2.18E-13, 1.8657E-11
DataValue, -0.2, 0.1, 1.8707000000000003E-11, -6.8E-14, -7E-15, 6.8E-14, 7E-15, 1.8707000000000003E-11
DataValue, -0.18000000000000002, 0.1, 1.8852000000000002E-11, -2.0000000000000003E-14, 1.7E-14, 2.0000000000000003E-14, 1.7E-14, 1.8852000000000002E-11
DataValue, -0.16, 0.1, 1.8854E-11, -1.4E-14, 1.2000000000000001E-14, 1.4E-14, 1.2000000000000001E-14, 1.8854E-11
DataValue, -0.14, 0.1, 1.8876E-11, 1.8000000000000002E-14, -1.1E-14, 1.8000000000000002E-14, 1.1E-14, 1.8876E-11
DataValue, -0.12000000000000001, 0.1, 1.8836E-11, 7.9E-14, -1.09E-13, 7.9E-14, 1.09E-13, 1.8836E-11
DataValue, -0.1, 0.1, 1.8964E-11, 3.2000000000000005E-13, -4.68E-13, 3.2000000000000005E-13, 4.68E-13, 1.8964E-11
DataValue, -0.08, 0.1, 1.8878000000000003E-11, 8.070000000000001E-13, -8.6000000000000007E-13, 8.070000000000001E-13, 8.6000000000000007E-13, 1.8878000000000003E-11
DataValue, -0.060000000000000005, 0.1, 1.9233E-11, 1.9620000000000003E-12, -2.022E-12, 1.9620000000000003E-12, 2.022E-12, 1.9233E-11
DataValue, -0.04, 0.1, 1.8976E-11, 4.8470000000000007E-12, -5.053E-12, 4.8470000000000007E-12, 5.053E-12, 1.8976E-11
DataValue, -0.02, 0.1, 1.8985000000000003E-11, 1.158E-11, -1.1592000000000002E-11, 1.158E-11, 1.1592000000000002E-11, 1.8985000000000003E-11
DataValue, 0, 0.1, 1.9334E-11, 2.7275E-11, -2.7309000000000002E-11, 2.7275E-11, 2.7309000000000002E-11, 1.9334E-11
DataValue, 0.02, 0.1, 1.9018E-11, 6.3343000000000011E-11, -6.3196E-11, 6.3343000000000011E-11, 6.3196E-11, 1.9018E-11
DataValue, 0.04, 0.1, 1.8896000000000002E-11, 1.4243000000000002E-10, -1.42045E-10, 1.4243000000000002E-10, 1.42045E-10, 1.8896000000000002E-11
DataValue, 0.060000000000000005, 0.1, 1.8749E-11, 3.1038100000000003E-10, -3.0989400000000004E-10, 3.1038100000000003E-10, 3.0989400000000004E-10, 1.8749E-11
DataValue, 0.08, 0.1, 1.8945000000000002E-11, 6.49191E-10, -6.475730000000001E-10, 6.49191E-10, 6.475730000000001E-10, 1.8945000000000002E-11
DataValue, 0.1, 0.1, 1.8973E-11, 1.2917E-09, -1.2875E-09, 1.2917E-09, 1.2875E-09, 1.8973E-11
DataValue, 0.12000000000000001, 0.1, 1.9049000000000003E-11, 2.44984E-09, -2.44531E-09, 2.44984E-09, 2.44531E-09, 1.9049000000000003E-11
DataValue, 0.14, 0.1, 1.8977000000000002E-11, 4.44467E-09, -4.43593E-09, 4.44467E-09, 4.43593E-09, 1.8977000000000002E-11
DataValue, 0.16, 0.1, 1.9012000000000002E-11, 7.65482E-09, -7.65526E-09, 7.65482E-09, 7.65526E-09, 1.9012000000000002E-11
DataValue, 0.18000000000000002, 0.1, 1.9037000000000003E-11, 1.2682999999999999E-08, -1.2639799999999999E-08, 1.2682999999999999E-08, 1.2639799999999999E-08, 1.9037000000000003E-11
DataValue, 0.2, 0.1, 1.9130000000000003E-11, 2.0065099999999997E-08, -2.0040199999999997E-08, 2.0065099999999997E-08, 2.0040199999999997E-08, 1.9130000000000003E-11
DataValue, 0.22, 0.1, 1.9038000000000002E-11, 3.10027E-08, -3.09683E-08, 3.10027E-08, 3.09683E-08, 1.9038000000000002E-11
