
SetupTitle, ITO_IdVG
PrimitiveTest, I/V Sweep
TestParameter, Context.MainFrame, 4156C
TestParameter, Channel.UnitType, SMU, SMU, SMU
TestParameter, Channel.Unit, SMU3:HR, SMU1:HR, SMU4:HR
TestParameter, Channel.IName, Ig, Id, Is
TestParameter, Channel.VName, Vg, Vd, Vs
TestParameter, Channel.Mode, V, V, COMMON
TestParameter, Channel.Func, VAR1, CONST, CONST
TestParameter, Channel.Index, 
TestParameter, Channel.Time, 
TestParameter, Measurement.Port.Unit, SMU3:HR, SMU1:HR, SMU4:HR
TestParameter, Measurement.Port.SeriesResistor, NONE, NONE, NONE
TestParameter, Measurement.Port.Filter, ON, ON, ON
TestParameter, Measurement.Primary.Locus, Double
TestParameter, Measurement.Primary.Scale, LINEAR
TestParameter, Measurement.Primary.Start, -2
TestParameter, Measurement.Primary.Stop, 2
TestParameter, Measurement.Primary.Step, 0.02
TestParameter, Measurement.Primary.Compliance, 0.1
TestParameter, Measurement.Primary.PowerCompliance, 0
TestParameter, Measurement.Aborting.Condition, CONTINUE AT ANY
TestParameter, Measurement.PostOutput.Value, START
TestParameter, Measurement.PostOutput.Retention, OFF
TestParameter, Measurement.Bias.Source, -2, 0.1, 0
TestParameter, Measurement.Bias.Compliance, 0.1, 0.1, 0.1
TestParameter, Measurement.Monitor.Unit, SMU3:HR, SMU1:HR, SMU4:HR
TestParameter, Measurement.Monitor.Adc, HR ADC, HR ADC, HR ADC
TestParameter, Measurement.Monitor.RangingMode, LIMITED, LIMITED, LIMITED
TestParameter, Measurement.Monitor.RangeBoundary, 1nA, 1nA, 1nA
TestParameter, Measurement.Monitor.RangeRating, BY FULL RANGE, BY FULL RANGE, BY FULL RANGE
TestParameter, Measurement.Monitor.RangeRatingCoeff, 50, 50, 50
TestParameter, Measurement.Timing.Hold, 0
TestParameter, Measurement.Timing.Delay, 0.05
TestParameter, Measurement.Adc.HighResolution.AutoZero, OFF
TestParameter, Measurement.Adc.HighResolution.Mode, AUTO
TestParameter, Measurement.Adc.HighResolution.Coeff, 1
TestParameter, Measurement.Ag16440ASelector.SemiconductorRelay.Channel1, DEFAULT
TestParameter, Measurement.Ag16440ASelector.SemiconductorRelay.Channel3, DEFAULT
TestParameter, Function.User.Name, absId, absIs, absIg
TestParameter, Function.User.Unit, A, A, A
TestParameter, Function.User.Definition, abs(Id), abs(Is), abs(Ig)
TestParameter, Output.Graph.Enabled, true
TestParameter, Output.Graph.XAxis.Data, Vg
TestParameter, Output.Graph.XAxis.Scale, Linear
TestParameter, Output.Graph.XAxis.Left, -2
TestParameter, Output.Graph.XAxis.Right, 2
TestParameter, Output.Graph.YAxis.Data, absId, absIs, absIg
TestParameter, Output.Graph.YAxis.Scale, Log, Log, Log
TestParameter, Output.Graph.YAxis.Bottom, 1E-15, 1E-15, 1E-15
TestParameter, Output.Graph.YAxis.Top, 0.1, 0.1, 0.1
TestParameter, Output.Graph.YAxis.Group, , , 
TestParameter, Output.List.Data, Vg, Vd, Id, Is, Ig
TestParameter, AutoAnalysis.Interpolation, false
TestParameter, AutoAnalysis.Line1.Enabled, false
TestParameter, AutoAnalysis.Line1.Type, 1
TestParameter, AutoAnalysis.Line1.Fix, True
TestParameter, AutoAnalysis.Line1.YAxis, 0
TestParameter, AutoAnalysis.Line1.Point1.Type, 0
TestParameter, AutoAnalysis.Line1.Point1.XY.X, 
TestParameter, AutoAnalysis.Line1.Point1.XY.Y, 
TestParameter, AutoAnalysis.Line1.Point1.Data.Var, 
TestParameter, AutoAnalysis.Line1.Point1.Data.Condition, 
TestParameter, AutoAnalysis.Line1.Point1.Data.Start, false
TestParameter, AutoAnalysis.Line1.Point1.Data.StartVar, 
TestParameter, AutoAnalysis.Line1.Point1.Data.StartCondition, 
TestParameter, AutoAnalysis.Line1.Point2.Type, 0
TestParameter, AutoAnalysis.Line1.Point2.XY.X, 
TestParameter, AutoAnalysis.Line1.Point2.XY.Y, 
TestParameter, AutoAnalysis.Line1.Point2.Data.Var, 
TestParameter, AutoAnalysis.Line1.Point2.Data.Condition, 
TestParameter, AutoAnalysis.Line1.Point2.Data.Start, false
TestParameter, AutoAnalysis.Line1.Point2.Data.StartVar, 
TestParameter, AutoAnalysis.Line1.Point2.Data.StartCondition, 
TestParameter, AutoAnalysis.Line1.GradientExpr, 0
TestParameter, AutoAnalysis.Line2.Enabled, false
TestParameter, AutoAnalysis.Line2.Type, 1
TestParameter, AutoAnalysis.Line2.Fix, True
TestParameter, AutoAnalysis.Line2.YAxis, 0
TestParameter, AutoAnalysis.Line2.Point1.Type, 0
TestParameter, AutoAnalysis.Line2.Point1.XY.X, 
TestParameter, AutoAnalysis.Line2.Point1.XY.Y, 
TestParameter, AutoAnalysis.Line2.Point1.Data.Var, 
TestParameter, AutoAnalysis.Line2.Point1.Data.Condition, 
TestParameter, AutoAnalysis.Line2.Point1.Data.Start, false
TestParameter, AutoAnalysis.Line2.Point1.Data.StartVar, 
TestParameter, AutoAnalysis.Line2.Point1.Data.StartCondition, 
TestParameter, AutoAnalysis.Line2.Point2.Type, 0
TestParameter, AutoAnalysis.Line2.Point2.XY.X, 
TestParameter, AutoAnalysis.Line2.Point2.XY.Y, 
TestParameter, AutoAnalysis.Line2.Point2.Data.Var, 
TestParameter, AutoAnalysis.Line2.Point2.Data.Condition, 
TestParameter, AutoAnalysis.Line2.Point2.Data.Start, false
TestParameter, AutoAnalysis.Line2.Point2.Data.StartVar, 
TestParameter, AutoAnalysis.Line2.Point2.Data.StartCondition, 
TestParameter, AutoAnalysis.Line2.GradientExpr, 0
TestParameter, AutoAnalysis.Marker.Enabled, false
TestParameter, AutoAnalysis.Marker.Data.Var, 
TestParameter, AutoAnalysis.Marker.Data.Condition, 
TestParameter, AutoAnalysis.Marker.Data.Start, false
TestParameter, AutoAnalysis.Marker.Data.StartVar, 
TestParameter, AutoAnalysis.Marker.Data.StartCondition, 
MetaData, TestRecord.EntryPoint, true
MetaData, TestRecord.RecordTime, 12/18/2022 17:52:21
MetaData, TestRecord.TestTarget, 
MetaData, TestRecord.IterationIndex, 75
MetaData, TestRecord.Preservation, true
MetaData, TestRecord.Flag, 
MetaData, TestRecord.Remarks, T=120C 2R sample
MetaData, TestRecord.LinkKey, 2f4ed703-8023-4ed6-9255-f9230581a0d2
Dimension1, 402, 402, 402, 402, 402, 402, 402, 402
Dimension2, 1, 1, 1, 1, 1, 1, 1, 1
DataName, Vg, Vd, Ig, Id, Is, absId, absIs, absIg
DataValue, -2, 0.1, -4.3692700000000004E-10, 5.624E-12, 8.6100000000000007E-13, 5.624E-12, 8.6100000000000007E-13, 4.3692700000000004E-10
DataValue, -1.9800000000000002, 0.1, -1.37023E-10, 4.175E-12, 3.0200000000000003E-13, 4.175E-12, 3.0200000000000003E-13, 1.37023E-10
DataValue, -1.9600000000000002, 0.1, -1.5738200000000002E-10, 3.881E-12, 6.7100000000000007E-13, 3.881E-12, 6.7100000000000007E-13, 1.5738200000000002E-10
DataValue, -1.9400000000000002, 0.1, -3.9664200000000006E-10, 3.86E-12, 6.2600000000000006E-13, 3.86E-12, 6.2600000000000006E-13, 3.9664200000000006E-10
DataValue, -1.9200000000000002, 0.1, -1.0475900000000001E-10, 3.4530000000000003E-12, 1.0180000000000001E-12, 3.4530000000000003E-12, 1.0180000000000001E-12, 1.0475900000000001E-10
DataValue, -1.9000000000000001, 0.1, -3.7015E-11, 2.775E-12, 4.87E-13, 2.775E-12, 4.87E-13, 3.7015E-11
DataValue, -1.8800000000000001, 0.1, -5.2379E-11, 2.5600000000000004E-12, 4.76E-13, 2.5600000000000004E-12, 4.76E-13, 5.2379E-11
DataValue, -1.86, 0.1, -4.7115000000000004E-11, 2.1710000000000003E-12, 4.2700000000000005E-13, 2.1710000000000003E-12, 4.2700000000000005E-13, 4.7115000000000004E-11
DataValue, -1.84, 0.1, -4.5119000000000006E-11, 2.0570000000000002E-12, 3.9300000000000004E-13, 2.0570000000000002E-12, 3.9300000000000004E-13, 4.5119000000000006E-11
DataValue, -1.82, 0.1, -3.5814000000000006E-11, 1.922E-12, 4.0400000000000005E-13, 1.922E-12, 4.0400000000000005E-13, 3.5814000000000006E-11
DataValue, -1.8, 0.1, -2.9114000000000005E-11, 1.7980000000000002E-12, 3.75E-13, 1.7980000000000002E-12, 3.75E-13, 2.9114000000000005E-11
DataValue, -1.78, 0.1, -2.0218E-11, 1.7100000000000002E-12, 3.4800000000000003E-13, 1.7100000000000002E-12, 3.4800000000000003E-13, 2.0218E-11
DataValue, -1.76, 0.1, -2.0419E-11, 1.7740000000000001E-12, 3.1100000000000004E-13, 1.7740000000000001E-12, 3.1100000000000004E-13, 2.0419E-11
DataValue, -1.74, 0.1, -1.5667000000000003E-11, 1.575E-12, 3.14E-13, 1.575E-12, 3.14E-13, 1.5667000000000003E-11
DataValue, -1.72, 0.1, -7.168E-12, 1.381E-12, 9.75E-13, 1.381E-12, 9.75E-13, 7.168E-12
DataValue, -1.7000000000000002, 0.1, 9.9631E-11, 1.216E-12, 2.6300000000000004E-13, 1.216E-12, 2.6300000000000004E-13, 9.9631E-11
DataValue, -1.6800000000000002, 0.1, 2.1838E-11, 1.0410000000000001E-12, 2.38E-13, 1.0410000000000001E-12, 2.38E-13, 2.1838E-11
DataValue, -1.6600000000000001, 0.1, 1.9453E-11, 9.6200000000000014E-13, -3.87E-13, 9.6200000000000014E-13, 3.87E-13, 1.9453E-11
DataValue, -1.6400000000000001, 0.1, -4.8566000000000004E-11, 8.2800000000000011E-13, 2.2600000000000002E-13, 8.2800000000000011E-13, 2.2600000000000002E-13, 4.8566000000000004E-11
DataValue, -1.62, 0.1, -2.79679E-10, 9.23E-13, 2.46E-13, 9.23E-13, 2.46E-13, 2.79679E-10
DataValue, -1.6, 0.1, -2.8252000000000004E-11, 7.1800000000000007E-13, 1.0730000000000002E-12, 7.1800000000000007E-13, 1.0730000000000002E-12, 2.8252000000000004E-11
DataValue, -1.58, 0.1, 1.11669E-10, 6.2200000000000008E-13, 1.8000000000000002E-13, 6.2200000000000008E-13, 1.8000000000000002E-13, 1.11669E-10
DataValue, -1.56, 0.1, -6.7848500000000006E-10, 8.8800000000000005E-13, 2.6E-13, 8.8800000000000005E-13, 2.6E-13, 6.7848500000000006E-10
DataValue, -1.54, 0.1, -2.7007000000000002E-11, 5.2700000000000008E-13, -4.7E-14, 5.2700000000000008E-13, 4.7E-14, 2.7007000000000002E-11
DataValue, -1.52, 0.1, 4.4073E-11, 4.5800000000000007E-13, 1.7E-13, 4.5800000000000007E-13, 1.7E-13, 4.4073E-11
DataValue, -1.5, 0.1, 1.8323E-11, 3.9300000000000004E-13, 1.58E-13, 3.9300000000000004E-13, 1.58E-13, 1.8323E-11
DataValue, -1.48, 0.1, 1.8465E-11, 3.6100000000000003E-13, 1.47E-13, 3.6100000000000003E-13, 1.47E-13, 1.8465E-11
DataValue, -1.46, 0.1, 2.4071000000000003E-11, 3.6000000000000003E-13, 1.34E-13, 3.6000000000000003E-13, 1.34E-13, 2.4071000000000003E-11
DataValue, -1.4400000000000002, 0.1, 2.0964000000000003E-11, 3.4700000000000004E-13, 1.2700000000000001E-13, 3.4700000000000004E-13, 1.2700000000000001E-13, 2.0964000000000003E-11
DataValue, -1.4200000000000002, 0.1, 2.8011E-11, 8.68E-13, -1.36E-13, 8.68E-13, 1.36E-13, 2.8011E-11
DataValue, -1.4000000000000001, 0.1, 6.0887000000000009E-11, 3.0100000000000003E-13, 1E-13, 3.0100000000000003E-13, 1E-13, 6.0887000000000009E-11
DataValue, -1.3800000000000001, 0.1, 5.8235E-11, 2.38E-13, 7.7E-14, 2.38E-13, 7.7E-14, 5.8235E-11
DataValue, -1.36, 0.1, 4.5652E-11, -5E-13, 3.88E-13, 5E-13, 3.88E-13, 4.5652E-11
DataValue, -1.34, 0.1, -2.7519000000000003E-11, 1.81E-13, 8.4000000000000008E-14, 1.81E-13, 8.4000000000000008E-14, 2.7519000000000003E-11
DataValue, -1.32, 0.1, 8.8190000000000011E-12, 1.54E-13, 7.3E-14, 1.54E-13, 7.3E-14, 8.8190000000000011E-12
DataValue, -1.3, 0.1, 1.3635000000000002E-11, -3.6800000000000005E-13, -1.7E-14, 3.6800000000000005E-13, 1.7E-14, 1.3635000000000002E-11
DataValue, -1.28, 0.1, 5.2406E-11, 1.3E-13, 7.3E-14, 1.3E-13, 7.3E-14, 5.2406E-11
DataValue, -1.26, 0.1, 3.3748E-11, 1.3300000000000001E-13, 7.6E-14, 1.3300000000000001E-13, 7.6E-14, 3.3748E-11
DataValue, -1.24, 0.1, -3.95293E-10, 5.9700000000000008E-13, 1.34E-13, 5.9700000000000008E-13, 1.34E-13, 3.95293E-10
DataValue, -1.22, 0.1, -2.0403000000000002E-11, 7.8000000000000008E-14, 1.939E-12, 7.8000000000000008E-14, 1.939E-12, 2.0403000000000002E-11
DataValue, -1.2, 0.1, 8.5155E-11, 7.4E-14, -4.7900000000000008E-13, 7.4E-14, 4.7900000000000008E-13, 8.5155E-11
DataValue, -1.1800000000000002, 0.1, -2.3617000000000002E-11, 7.2000000000000009E-14, 4.0000000000000006E-14, 7.2000000000000009E-14, 4.0000000000000006E-14, 2.3617000000000002E-11
DataValue, -1.1600000000000001, 0.1, 3.6899E-11, 3.2E-14, 3.8E-14, 3.2E-14, 3.8E-14, 3.6899E-11
DataValue, -1.1400000000000001, 0.1, 3.4208E-11, 5.8E-14, 8.23E-13, 5.8E-14, 8.23E-13, 3.4208E-11
DataValue, -1.12, 0.1, 1.3026500000000002E-10, 4.7E-14, 7E-15, 4.7E-14, 7E-15, 1.3026500000000002E-10
DataValue, -1.1, 0.1, 1.6029000000000002E-10, -3.0100000000000003E-13, -8.5E-14, 3.0100000000000003E-13, 8.5E-14, 1.6029000000000002E-10
DataValue, -1.08, 0.1, 9.0163E-11, 9.9000000000000007E-14, -6.37E-13, 9.9000000000000007E-14, 6.37E-13, 9.0163E-11
DataValue, -1.06, 0.1, 1.4252000000000002E-11, 1.29E-13, -1.0100000000000001E-13, 1.29E-13, 1.0100000000000001E-13, 1.4252000000000002E-11
DataValue, -1.04, 0.1, -6.6450700000000009E-10, 5.3100000000000006E-13, -1.34E-13, 5.3100000000000006E-13, 1.34E-13, 6.6450700000000009E-10
DataValue, -1.02, 0.1, -1.1020000000000002E-12, 3.5600000000000005E-13, -5.5000000000000008E-13, 3.5600000000000005E-13, 5.5000000000000008E-13, 1.1020000000000002E-12
DataValue, -1, 0.1, 7.948800000000001E-11, 5.37E-13, -5.42E-13, 5.37E-13, 5.42E-13, 7.948800000000001E-11
DataValue, -0.98000000000000009, 0.1, 4.6052E-11, 8.9E-13, -8.72E-13, 8.9E-13, 8.72E-13, 4.6052E-11
DataValue, -0.96000000000000008, 0.1, 4.2721000000000004E-11, 1.4110000000000002E-12, -1.387E-12, 1.4110000000000002E-12, 1.387E-12, 4.2721000000000004E-11
DataValue, -0.94000000000000006, 0.1, 4.3269E-11, 2.24E-12, -2.222E-12, 2.24E-12, 2.222E-12, 4.3269E-11
DataValue, -0.92, 0.1, 4.2746000000000005E-11, 3.606E-12, -3.5530000000000003E-12, 3.606E-12, 3.5530000000000003E-12, 4.2746000000000005E-11
DataValue, -0.9, 0.1, 4.4325000000000006E-11, 5.9090000000000008E-12, -5.519E-12, 5.9090000000000008E-12, 5.519E-12, 4.4325000000000006E-11
DataValue, -0.88, 0.1, 1.3039E-11, 9.1230000000000014E-12, -9.5160000000000011E-12, 9.1230000000000014E-12, 9.5160000000000011E-12, 1.3039E-11
DataValue, -0.86, 0.1, -5.3375E-11, 1.4635E-11, -1.4378E-11, 1.4635E-11, 1.4378E-11, 5.3375E-11
DataValue, -0.84000000000000008, 0.1, 2.0007E-11, 2.2798E-11, -2.2714E-11, 2.2798E-11, 2.2714E-11, 2.0007E-11
DataValue, -0.82000000000000006, 0.1, 6.4362E-11, 3.6718000000000006E-11, -3.6140000000000004E-11, 3.6718000000000006E-11, 3.6140000000000004E-11, 6.4362E-11
DataValue, -0.8, 0.1, 6.1808E-11, 5.9004E-11, -5.7821E-11, 5.9004E-11, 5.7821E-11, 6.1808E-11
DataValue, -0.78, 0.1, 5.4702000000000007E-11, 9.3964000000000013E-11, -9.2226E-11, 9.3964000000000013E-11, 9.2226E-11, 5.4702000000000007E-11
DataValue, -0.76, 0.1, 5.3747E-11, 1.4989E-10, -1.47413E-10, 1.4989E-10, 1.47413E-10, 5.3747E-11
DataValue, -0.74, 0.1, 5.2346000000000003E-11, 2.3961200000000003E-10, -2.35699E-10, 2.3961200000000003E-10, 2.35699E-10, 5.2346000000000003E-11
DataValue, -0.72000000000000008, 0.1, 5.1612E-11, 3.86343E-10, -3.79485E-10, 3.86343E-10, 3.79485E-10, 5.1612E-11
DataValue, -0.70000000000000007, 0.1, 5.1766000000000004E-11, 6.19358E-10, -6.0932800000000009E-10, 6.19358E-10, 6.0932800000000009E-10, 5.1766000000000004E-11
DataValue, -0.68, 0.1, 9.3503000000000013E-11, 9.8893500000000016E-10, -9.69583E-10, 9.8893500000000016E-10, 9.69583E-10, 9.3503000000000013E-11
DataValue, -0.66, 0.1, -2.0046000000000002E-11, 1.54406E-09, -1.52057E-09, 1.54406E-09, 1.52057E-09, 2.0046000000000002E-11
DataValue, -0.64, 0.1, 1.36981E-10, 2.49913E-09, -2.48624E-09, 2.49913E-09, 2.48624E-09, 1.36981E-10
DataValue, -0.62, 0.1, 1.1470400000000001E-10, 4.0664E-09, -4.0502E-09, 4.0664E-09, 4.0502E-09, 1.1470400000000001E-10
DataValue, -0.6, 0.1, 8.2016000000000009E-11, 6.52401E-09, -6.4907E-09, 6.52401E-09, 6.4907E-09, 8.2016000000000009E-11
DataValue, -0.58000000000000007, 0.1, -1.44052E-10, 1.042162E-08, -1.037913E-08, 1.042162E-08, 1.037913E-08, 1.44052E-10
DataValue, -0.56, 0.1, 3.3439E-11, 1.61197E-08, -1.59592E-08, 1.61197E-08, 1.59592E-08, 3.3439E-11
DataValue, -0.54, 0.1, 5.6752E-11, 2.5060799999999998E-08, -2.4975599999999996E-08, 2.5060799999999998E-08, 2.4975599999999996E-08, 5.6752E-11
DataValue, -0.52, 0.1, 5.8602E-11, 3.84707E-08, -3.83461E-08, 3.84707E-08, 3.83461E-08, 5.8602E-11
DataValue, -0.5, 0.1, 6.1404000000000011E-11, 5.79425E-08, -5.7842599999999995E-08, 5.79425E-08, 5.7842599999999995E-08, 6.1404000000000011E-11
DataValue, -0.48000000000000004, 0.1, 6.0505E-11, 8.56247E-08, -8.55099E-08, 8.56247E-08, 8.55099E-08, 6.0505E-11
DataValue, -0.46, 0.1, 4.9102E-11, 1.2229E-07, -1.21482E-07, 1.2229E-07, 1.21482E-07, 4.9102E-11
DataValue, -0.44, 0.1, 5.9195000000000009E-11, 1.726E-07, -1.72243E-07, 1.726E-07, 1.72243E-07, 5.9195000000000009E-11
DataValue, -0.42000000000000004, 0.1, 6.5852E-11, 2.39908E-07, -2.39522E-07, 2.39908E-07, 2.39522E-07, 6.5852E-11
DataValue, -0.4, 0.1, -8.9870000000000012E-12, 3.24081E-07, -3.2349299999999997E-07, 3.24081E-07, 3.2349299999999997E-07, 8.9870000000000012E-12
DataValue, -0.38, 0.1, 4.2149E-11, 4.31833E-07, -4.31447E-07, 4.31833E-07, 4.31447E-07, 4.2149E-11
DataValue, -0.36000000000000004, 0.1, -3.9366900000000004E-10, 5.64178E-07, -5.63787E-07, 5.64178E-07, 5.63787E-07, 3.9366900000000004E-10
DataValue, -0.34, 0.1, 1.3042E-11, 7.24089E-07, -7.23875E-07, 7.24089E-07, 7.23875E-07, 1.3042E-11
DataValue, -0.32, 0.1, 3.3604E-11, 9.2043599999999994E-07, -9.20022E-07, 9.2043599999999994E-07, 9.20022E-07, 3.3604E-11
DataValue, -0.3, 0.1, 9.5152000000000007E-11, 1.15399E-06, -1.1532800000000001E-06, 1.15399E-06, 1.1532800000000001E-06, 9.5152000000000007E-11
DataValue, -0.28, 0.1, 7.0134E-11, 1.42325E-06, -1.4231700000000002E-06, 1.42325E-06, 1.4231700000000002E-06, 7.0134E-11
DataValue, -0.26, 0.1, 2.3753900000000003E-10, 1.74343E-06, -1.7460800000000002E-06, 1.74343E-06, 1.7460800000000002E-06, 2.3753900000000003E-10
DataValue, -0.24000000000000002, 0.1, 9.6819000000000012E-11, 2.12709E-06, -2.12789E-06, 2.12709E-06, 2.12789E-06, 9.6819000000000012E-11
DataValue, -0.22, 0.1, 8.8850000000000009E-11, 2.56212E-06, -2.5579200000000002E-06, 2.56212E-06, 2.5579200000000002E-06, 8.8850000000000009E-11
DataValue, -0.2, 0.1, 8.4124000000000011E-11, 3.05186E-06, -3.05252E-06, 3.05186E-06, 3.05252E-06, 8.4124000000000011E-11
DataValue, -0.18000000000000002, 0.1, 8.4428000000000008E-11, 3.6104700000000004E-06, -3.6124600000000003E-06, 3.6104700000000004E-06, 3.6124600000000003E-06, 8.4428000000000008E-11
DataValue, -0.16, 0.1, 8.2533000000000011E-11, 4.2417900000000008E-06, -4.24694E-06, 4.2417900000000008E-06, 4.24694E-06, 8.2533000000000011E-11
DataValue, -0.14, 0.1, 8.1461E-11, 4.9456600000000005E-06, -4.9560000000000005E-06, 4.9456600000000005E-06, 4.9560000000000005E-06, 8.1461E-11
DataValue, -0.12000000000000001, 0.1, 8.2023E-11, 5.7422000000000007E-06, -5.7416E-06, 5.7422000000000007E-06, 5.7416E-06, 8.2023E-11
DataValue, -0.1, 0.1, 7.9795000000000007E-11, 6.6296100000000007E-06, -6.6404400000000011E-06, 6.6296100000000007E-06, 6.6404400000000011E-06, 7.9795000000000007E-11
DataValue, -0.08, 0.1, 8.1572E-11, 7.6284400000000008E-06, -7.628710000000001E-06, 7.6284400000000008E-06, 7.628710000000001E-06, 8.1572E-11
DataValue, -0.060000000000000005, 0.1, 2.1183800000000002E-10, 8.7277200000000009E-06, -8.7347500000000014E-06, 8.7277200000000009E-06, 8.7347500000000014E-06, 2.1183800000000002E-10
DataValue, -0.04, 0.1, 1.34037E-10, 9.85867E-06, -9.8695300000000014E-06, 9.85867E-06, 9.8695300000000014E-06, 1.34037E-10
DataValue, -0.02, 0.1, -1.1163000000000002E-11, 1.1195300000000001E-05, -1.1203780000000001E-05, 1.1195300000000001E-05, 1.1203780000000001E-05, 1.1163000000000002E-11
DataValue, 0, 0.1, 5.5093000000000007E-11, 1.2611E-05, -1.26125E-05, 1.2611E-05, 1.26125E-05, 5.5093000000000007E-11
DataValue, 0.02, 0.1, 1.75539E-10, 1.40451E-05, -1.4062500000000001E-05, 1.40451E-05, 1.4062500000000001E-05, 1.75539E-10
DataValue, 0.04, 0.1, 1.0623500000000001E-10, 1.56245E-05, -1.56502E-05, 1.56245E-05, 1.56502E-05, 1.0623500000000001E-10
DataValue, 0.060000000000000005, 0.1, -2.89239E-10, 1.73017E-05, -1.73294E-05, 1.73017E-05, 1.73294E-05, 2.89239E-10
DataValue, 0.08, 0.1, 5.8318000000000007E-11, 1.90495E-05, -1.90787E-05, 1.90495E-05, 1.90787E-05, 5.8318000000000007E-11
DataValue, 0.1, 0.1, 7.6188E-11, 2.09193E-05, -2.0948800000000002E-05, 2.09193E-05, 2.0948800000000002E-05, 7.6188E-11
DataValue, 0.12000000000000001, 0.1, 8.2017E-11, 2.2945300000000002E-05, -2.29696E-05, 2.2945300000000002E-05, 2.29696E-05, 8.2017E-11
