
SetupTitle, ITO_IdVG
PrimitiveTest, I/V Sweep
TestParameter, Context.MainFrame, 4156C
TestParameter, Channel.UnitType, SMU, SMU, SMU
TestParameter, Channel.Unit, SMU3:HR, SMU1:HR, SMU4:HR
TestParameter, Channel.IName, Ig, Id, Is
TestParameter, Channel.VName, Vg, Vd, Vs
TestParameter, Channel.Mode, V, V, COMMON
TestParameter, Channel.Func, VAR1, CONST, CONST
TestParameter, Channel.Index, 
TestParameter, Channel.Time, 
TestParameter, Measurement.Port.Unit, SMU3:HR, SMU1:HR, SMU4:HR
TestParameter, Measurement.Port.SeriesResistor, NONE, NONE, NONE
TestParameter, Measurement.Port.Filter, ON, ON, ON
TestParameter, Measurement.Primary.Locus, Double
TestParameter, Measurement.Primary.Scale, LINEAR
TestParameter, Measurement.Primary.Start, -2
TestParameter, Measurement.Primary.Stop, 2
TestParameter, Measurement.Primary.Step, 0.02
TestParameter, Measurement.Primary.Compliance, 0.1
TestParameter, Measurement.Primary.PowerCompliance, 0
TestParameter, Measurement.Aborting.Condition, CONTINUE AT ANY
TestParameter, Measurement.PostOutput.Value, START
TestParameter, Measurement.PostOutput.Retention, OFF
TestParameter, Measurement.Bias.Source, -2, 0.1, 0
TestParameter, Measurement.Bias.Compliance, 0.1, 0.1, 0.1
TestParameter, Measurement.Monitor.Unit, SMU3:HR, SMU1:HR, SMU4:HR
TestParameter, Measurement.Monitor.Adc, HR ADC, HR ADC, HR ADC
TestParameter, Measurement.Monitor.RangingMode, LIMITED, LIMITED, LIMITED
TestParameter, Measurement.Monitor.RangeBoundary, 1nA, 1nA, 1nA
TestParameter, Measurement.Monitor.RangeRating, BY FULL RANGE, BY FULL RANGE, BY FULL RANGE
TestParameter, Measurement.Monitor.RangeRatingCoeff, 50, 50, 50
TestParameter, Measurement.Timing.Hold, 0
TestParameter, Measurement.Timing.Delay, 0.05
TestParameter, Measurement.Adc.HighResolution.AutoZero, OFF
TestParameter, Measurement.Adc.HighResolution.Mode, AUTO
TestParameter, Measurement.Adc.HighResolution.Coeff, 1
TestParameter, Measurement.Ag16440ASelector.SemiconductorRelay.Channel1, DEFAULT
TestParameter, Measurement.Ag16440ASelector.SemiconductorRelay.Channel3, DEFAULT
TestParameter, Function.User.Name, absId, absIs, absIg
TestParameter, Function.User.Unit, A, A, A
TestParameter, Function.User.Definition, abs(Id), abs(Is), abs(Ig)
TestParameter, Output.Graph.Enabled, true
TestParameter, Output.Graph.XAxis.Data, Vg
TestParameter, Output.Graph.XAxis.Scale, Linear
TestParameter, Output.Graph.XAxis.Left, -2
TestParameter, Output.Graph.XAxis.Right, 2
TestParameter, Output.Graph.YAxis.Data, absId, absIs, absIg
TestParameter, Output.Graph.YAxis.Scale, Log, Log, Log
TestParameter, Output.Graph.YAxis.Bottom, 1E-15, 1E-15, 1E-15
TestParameter, Output.Graph.YAxis.Top, 0.1, 0.1, 0.1
TestParameter, Output.Graph.YAxis.Group, , , 
TestParameter, Output.List.Data, Vg, Vd, Id, Is, Ig
TestParameter, AutoAnalysis.Interpolation, false
TestParameter, AutoAnalysis.Line1.Enabled, false
TestParameter, AutoAnalysis.Line1.Type, 1
TestParameter, AutoAnalysis.Line1.Fix, True
TestParameter, AutoAnalysis.Line1.YAxis, 0
TestParameter, AutoAnalysis.Line1.Point1.Type, 0
TestParameter, AutoAnalysis.Line1.Point1.XY.X, 
TestParameter, AutoAnalysis.Line1.Point1.XY.Y, 
TestParameter, AutoAnalysis.Line1.Point1.Data.Var, 
TestParameter, AutoAnalysis.Line1.Point1.Data.Condition, 
TestParameter, AutoAnalysis.Line1.Point1.Data.Start, false
TestParameter, AutoAnalysis.Line1.Point1.Data.StartVar, 
TestParameter, AutoAnalysis.Line1.Point1.Data.StartCondition, 
TestParameter, AutoAnalysis.Line1.Point2.Type, 0
TestParameter, AutoAnalysis.Line1.Point2.XY.X, 
TestParameter, AutoAnalysis.Line1.Point2.XY.Y, 
TestParameter, AutoAnalysis.Line1.Point2.Data.Var, 
TestParameter, AutoAnalysis.Line1.Point2.Data.Condition, 
TestParameter, AutoAnalysis.Line1.Point2.Data.Start, false
TestParameter, AutoAnalysis.Line1.Point2.Data.StartVar, 
TestParameter, AutoAnalysis.Line1.Point2.Data.StartCondition, 
TestParameter, AutoAnalysis.Line1.GradientExpr, 0
TestParameter, AutoAnalysis.Line2.Enabled, false
TestParameter, AutoAnalysis.Line2.Type, 1
TestParameter, AutoAnalysis.Line2.Fix, True
TestParameter, AutoAnalysis.Line2.YAxis, 0
TestParameter, AutoAnalysis.Line2.Point1.Type, 0
TestParameter, AutoAnalysis.Line2.Point1.XY.X, 
TestParameter, AutoAnalysis.Line2.Point1.XY.Y, 
TestParameter, AutoAnalysis.Line2.Point1.Data.Var, 
TestParameter, AutoAnalysis.Line2.Point1.Data.Condition, 
TestParameter, AutoAnalysis.Line2.Point1.Data.Start, false
TestParameter, AutoAnalysis.Line2.Point1.Data.StartVar, 
TestParameter, AutoAnalysis.Line2.Point1.Data.StartCondition, 
TestParameter, AutoAnalysis.Line2.Point2.Type, 0
TestParameter, AutoAnalysis.Line2.Point2.XY.X, 
TestParameter, AutoAnalysis.Line2.Point2.XY.Y, 
TestParameter, AutoAnalysis.Line2.Point2.Data.Var, 
TestParameter, AutoAnalysis.Line2.Point2.Data.Condition, 
TestParameter, AutoAnalysis.Line2.Point2.Data.Start, false
TestParameter, AutoAnalysis.Line2.Point2.Data.StartVar, 
TestParameter, AutoAnalysis.Line2.Point2.Data.StartCondition, 
TestParameter, AutoAnalysis.Line2.GradientExpr, 0
TestParameter, AutoAnalysis.Marker.Enabled, false
TestParameter, AutoAnalysis.Marker.Data.Var, 
TestParameter, AutoAnalysis.Marker.Data.Condition, 
TestParameter, AutoAnalysis.Marker.Data.Start, false
TestParameter, AutoAnalysis.Marker.Data.StartVar, 
TestParameter, AutoAnalysis.Marker.Data.StartCondition, 
MetaData, TestRecord.EntryPoint, true
MetaData, TestRecord.RecordTime, 12/18/2022 15:29:42
MetaData, TestRecord.TestTarget, 
MetaData, TestRecord.IterationIndex, 14
MetaData, TestRecord.Preservation, true
MetaData, TestRecord.Flag, 
MetaData, TestRecord.Remarks, T = -10C 2R sample
MetaData, TestRecord.LinkKey, d928b0eb-bd9d-49be-a9da-4d2d4f337dec
Dimension1, 402, 402, 402, 402, 402, 402, 402, 402
Dimension2, 1, 1, 1, 1, 1, 1, 1, 1
DataName, Vg, Vd, Ig, Id, Is, absId, absIs, absIg
DataValue, -2, 0.1, -9.2307E-11, 1.9100000000000002E-13, 2.35E-13, 1.9100000000000002E-13, 2.35E-13, 9.2307E-11
DataValue, -1.9800000000000002, 0.1, -8.6326E-11, 1.8400000000000002E-13, 2.2900000000000003E-13, 1.8400000000000002E-13, 2.2900000000000003E-13, 8.6326E-11
DataValue, -1.9600000000000002, 0.1, -7.4131E-11, 1.22E-13, 4.3900000000000005E-13, 1.22E-13, 4.3900000000000005E-13, 7.4131E-11
DataValue, -1.9400000000000002, 0.1, -5.9638000000000009E-11, 1E-13, 1.6200000000000002E-13, 1E-13, 1.6200000000000002E-13, 5.9638000000000009E-11
DataValue, -1.9200000000000002, 0.1, -4.9355000000000007E-11, 8.4000000000000008E-14, 1.57E-13, 8.4000000000000008E-14, 1.57E-13, 4.9355000000000007E-11
DataValue, -1.9000000000000001, 0.1, -4.2068000000000005E-11, 5.1000000000000004E-14, 1.47E-13, 5.1000000000000004E-14, 1.47E-13, 4.2068000000000005E-11
DataValue, -1.8800000000000001, 0.1, -3.4934000000000004E-11, 7.8000000000000008E-14, 1.36E-13, 7.8000000000000008E-14, 1.36E-13, 3.4934000000000004E-11
DataValue, -1.86, 0.1, -2.5945E-11, 4.2000000000000004E-14, 1.0700000000000001E-13, 4.2000000000000004E-14, 1.0700000000000001E-13, 2.5945E-11
DataValue, -1.84, 0.1, -2.2953000000000002E-11, 5.1000000000000004E-14, 1.46E-13, 5.1000000000000004E-14, 1.46E-13, 2.2953000000000002E-11
DataValue, -1.82, 0.1, -2.1601E-11, 2.6000000000000003E-14, 9.0000000000000008E-14, 2.6000000000000003E-14, 9.0000000000000008E-14, 2.1601E-11
DataValue, -1.8, 0.1, -1.8788000000000003E-11, 1.9E-14, 8.1000000000000008E-14, 1.9E-14, 8.1000000000000008E-14, 1.8788000000000003E-11
DataValue, -1.78, 0.1, -1.6412000000000002E-11, 2.2E-14, 7.1E-14, 2.2E-14, 7.1E-14, 1.6412000000000002E-11
DataValue, -1.76, 0.1, -1.3475E-11, 3.9000000000000004E-14, 7.9E-14, 3.9000000000000004E-14, 7.9E-14, 1.3475E-11
DataValue, -1.74, 0.1, -1.3106000000000002E-11, 1.2000000000000001E-14, 7.2000000000000009E-14, 1.2000000000000001E-14, 7.2000000000000009E-14, 1.3106000000000002E-11
DataValue, -1.72, 0.1, -1.0975000000000001E-11, 2.0700000000000003E-13, -6.2E-14, 2.0700000000000003E-13, 6.2E-14, 1.0975000000000001E-11
DataValue, -1.7000000000000002, 0.1, -8.727E-12, -8E-15, 5.6E-14, 8E-15, 5.6E-14, 8.727E-12
DataValue, -1.6800000000000002, 0.1, -7.3050000000000009E-12, -7E-15, 5.1000000000000004E-14, 7E-15, 5.1000000000000004E-14, 7.3050000000000009E-12
DataValue, -1.6600000000000001, 0.1, -6.011E-12, 4E-15, 1.3000000000000001E-14, 4E-15, 1.3000000000000001E-14, 6.011E-12
DataValue, -1.6400000000000001, 0.1, -4.9710000000000005E-12, -2.1000000000000002E-14, 6.4E-14, 2.1000000000000002E-14, 6.4E-14, 4.9710000000000005E-12
DataValue, -1.62, 0.1, -4.517E-12, -1.8000000000000002E-14, 1.8000000000000002E-14, 1.8000000000000002E-14, 1.8000000000000002E-14, 4.517E-12
DataValue, -1.6, 0.1, -3.675E-12, -8.4000000000000008E-14, -7.7E-14, 8.4000000000000008E-14, 7.7E-14, 3.675E-12
DataValue, -1.58, 0.1, -3.1010000000000002E-12, -1.76E-13, -8.0000000000000013E-14, 1.76E-13, 8.0000000000000013E-14, 3.1010000000000002E-12
DataValue, -1.56, 0.1, -2.6180000000000004E-12, -8.3000000000000012E-14, -1.7E-14, 8.3000000000000012E-14, 1.7E-14, 2.6180000000000004E-12
DataValue, -1.54, 0.1, -2.157E-12, -4.5000000000000004E-14, 2E-15, 4.5000000000000004E-14, 2E-15, 2.157E-12
DataValue, -1.52, 0.1, -1.7910000000000001E-12, -3.0000000000000002E-15, -4E-15, 3.0000000000000002E-15, 4E-15, 1.7910000000000001E-12
DataValue, -1.5, 0.1, -1.2040000000000001E-12, 8.1000000000000008E-14, 2.84E-13, 8.1000000000000008E-14, 2.84E-13, 1.2040000000000001E-12
DataValue, -1.48, 0.1, -1.172E-12, 2.83E-13, -4.0000000000000006E-14, 2.83E-13, 4.0000000000000006E-14, 1.172E-12
DataValue, -1.46, 0.1, -8.23E-13, -3.5E-14, 0, 3.5E-14, 0, 8.23E-13
DataValue, -1.4400000000000002, 0.1, -7.2000000000000006E-13, -4.5000000000000004E-14, -2.0000000000000003E-14, 4.5000000000000004E-14, 2.0000000000000003E-14, 7.2000000000000006E-13
DataValue, -1.4200000000000002, 0.1, -5.91E-13, -5.2000000000000006E-14, 3.0000000000000002E-15, 5.2000000000000006E-14, 3.0000000000000002E-15, 5.91E-13
DataValue, -1.4000000000000001, 0.1, -4.8300000000000006E-13, -3.5E-14, 1.0000000000000002E-14, 3.5E-14, 1.0000000000000002E-14, 4.8300000000000006E-13
DataValue, -1.3800000000000001, 0.1, -3.9400000000000004E-13, -4.0000000000000006E-14, -2.0000000000000003E-14, 4.0000000000000006E-14, 2.0000000000000003E-14, 3.9400000000000004E-13
DataValue, -1.36, 0.1, -3.2400000000000003E-13, -2.9700000000000005E-13, 1.7E-14, 2.9700000000000005E-13, 1.7E-14, 3.2400000000000003E-13
DataValue, -1.34, 0.1, -2.96E-13, -2.6000000000000003E-14, -1.8000000000000002E-14, 2.6000000000000003E-14, 1.8000000000000002E-14, 2.96E-13
DataValue, -1.32, 0.1, -2.11E-13, -5.8E-14, -1.4E-14, 5.8E-14, 1.4E-14, 2.11E-13
DataValue, -1.3, 0.1, -1.42E-13, -2.9900000000000004E-13, 1.7E-14, 2.9900000000000004E-13, 1.7E-14, 1.42E-13
DataValue, -1.28, 0.1, -1.3800000000000002E-13, -5.1000000000000004E-14, -1.3000000000000001E-14, 5.1000000000000004E-14, 1.3000000000000001E-14, 1.3800000000000002E-13
DataValue, -1.26, 0.1, -1.22E-13, -5E-14, 0, 5E-14, 0, 1.22E-13
DataValue, -1.24, 0.1, -9.5000000000000012E-14, -3.4E-14, -1.0000000000000002E-14, 3.4E-14, 1.0000000000000002E-14, 9.5000000000000012E-14
DataValue, -1.22, 0.1, -6.8E-14, -4.7E-14, -1.5000000000000002E-14, 4.7E-14, 1.5000000000000002E-14, 6.8E-14
DataValue, -1.2, 0.1, -6.4E-14, -5.8E-14, -3.1E-14, 5.8E-14, 3.1E-14, 6.4E-14
DataValue, -1.1800000000000002, 0.1, -4.0000000000000006E-14, 4E-15, -2.3000000000000003E-14, 4E-15, 2.3000000000000003E-14, 4.0000000000000006E-14
DataValue, -1.1600000000000001, 0.1, -2.4000000000000002E-14, -3.7E-14, -1.1100000000000001E-13, 3.7E-14, 1.1100000000000001E-13, 2.4000000000000002E-14
DataValue, -1.1400000000000001, 0.1, 1E-15, -3.7E-14, -2.0000000000000003E-14, 3.7E-14, 2.0000000000000003E-14, 1E-15
DataValue, -1.12, 0.1, 3.6000000000000004E-14, -2.06E-13, -4.3000000000000006E-14, 2.06E-13, 4.3000000000000006E-14, 3.6000000000000004E-14
DataValue, -1.1, 0.1, 6.7E-14, -6.2E-14, 1.2000000000000001E-14, 6.2E-14, 1.2000000000000001E-14, 6.7E-14
DataValue, -1.08, 0.1, 8.0000000000000013E-14, -2.2E-14, -2.7000000000000002E-14, 2.2E-14, 2.7000000000000002E-14, 8.0000000000000013E-14
DataValue, -1.06, 0.1, 1.6100000000000002E-13, -5.4000000000000003E-14, -1.3000000000000001E-14, 5.4000000000000003E-14, 1.3000000000000001E-14, 1.6100000000000002E-13
DataValue, -1.04, 0.1, 2.0900000000000002E-13, -2.3000000000000003E-14, -9.3E-13, 2.3000000000000003E-14, 9.3E-13, 2.0900000000000002E-13
DataValue, -1.02, 0.1, 2.1500000000000002E-13, -5.1000000000000004E-14, -1.2000000000000001E-14, 5.1000000000000004E-14, 1.2000000000000001E-14, 2.1500000000000002E-13
DataValue, -1, 0.1, 5.69E-13, -1.4300000000000002E-13, -3.3000000000000005E-14, 1.4300000000000002E-13, 3.3000000000000005E-14, 5.69E-13
DataValue, -0.98000000000000009, 0.1, 5.0900000000000005E-13, -4.7E-14, -4.7E-13, 4.7E-14, 4.7E-13, 5.0900000000000005E-13
DataValue, -0.96000000000000008, 0.1, 5.65E-13, -3.4E-14, -1.3000000000000001E-14, 3.4E-14, 1.3000000000000001E-14, 5.65E-13
DataValue, -0.94000000000000006, 0.1, 6.9700000000000006E-13, -4.0000000000000006E-14, -1.2000000000000001E-14, 4.0000000000000006E-14, 1.2000000000000001E-14, 6.9700000000000006E-13
DataValue, -0.92, 0.1, 8.780000000000001E-13, -2.7000000000000002E-14, -1.5000000000000002E-14, 2.7000000000000002E-14, 1.5000000000000002E-14, 8.780000000000001E-13
DataValue, -0.9, 0.1, 1.18E-12, -4.4E-14, -2E-15, 4.4E-14, 2E-15, 1.18E-12
DataValue, -0.88, 0.1, 1.898E-12, -8.6000000000000012E-14, -1.9E-14, 8.6000000000000012E-14, 1.9E-14, 1.898E-12
DataValue, -0.86, 0.1, 2.247E-12, -5.8E-14, -1.3000000000000001E-14, 5.8E-14, 1.3000000000000001E-14, 2.247E-12
DataValue, -0.84000000000000008, 0.1, 2.811E-12, -3.5E-14, 3.0000000000000002E-15, 3.5E-14, 3.0000000000000002E-15, 2.811E-12
DataValue, -0.82000000000000006, 0.1, 3.4400000000000003E-12, -3.6000000000000004E-14, -2.9E-14, 3.6000000000000004E-14, 2.9E-14, 3.4400000000000003E-12
DataValue, -0.8, 0.1, 4.18E-12, -3.7E-14, 3.16E-13, 3.7E-14, 3.16E-13, 4.18E-12
DataValue, -0.78, 0.1, 5.703E-12, -2.9E-14, 1.0000000000000002E-14, 2.9E-14, 1.0000000000000002E-14, 5.703E-12
DataValue, -0.76, 0.1, 5.835E-12, -4.4E-14, -2.9E-14, 4.4E-14, 2.9E-14, 5.835E-12
DataValue, -0.74, 0.1, 6.923E-12, -3.5E-14, 2.6E-13, 3.5E-14, 2.6E-13, 6.923E-12
DataValue, -0.72000000000000008, 0.1, 8.7710000000000013E-12, -3.9000000000000004E-14, 2.1000000000000002E-14, 3.9000000000000004E-14, 2.1000000000000002E-14, 8.7710000000000013E-12
DataValue, -0.70000000000000007, 0.1, 8.9610000000000011E-12, -2.5E-14, -1.8000000000000002E-14, 2.5E-14, 1.8000000000000002E-14, 8.9610000000000011E-12
DataValue, -0.68, 0.1, 1.0514000000000001E-11, -3.1E-14, 2.0800000000000002E-13, 3.1E-14, 2.0800000000000002E-13, 1.0514000000000001E-11
DataValue, -0.66, 0.1, 1.2405000000000001E-11, -3.3000000000000005E-14, -5.700000000000001E-14, 3.3000000000000005E-14, 5.700000000000001E-14, 1.2405000000000001E-11
DataValue, -0.64, 0.1, 1.2981E-11, -6.5E-14, -1.3000000000000001E-14, 6.5E-14, 1.3000000000000001E-14, 1.2981E-11
DataValue, -0.62, 0.1, 1.4524E-11, -5.8E-14, -4E-15, 5.8E-14, 4E-15, 1.4524E-11
DataValue, -0.6, 0.1, 1.6021000000000002E-11, -2.8E-14, -1.7E-14, 2.8E-14, 1.7E-14, 1.6021000000000002E-11
DataValue, -0.58000000000000007, 0.1, 1.7131000000000002E-11, -2.2E-14, -2.3000000000000003E-14, 2.2E-14, 2.3000000000000003E-14, 1.7131000000000002E-11
DataValue, -0.56, 0.1, 1.7689E-11, -8.4000000000000008E-14, 1.23E-13, 8.4000000000000008E-14, 1.23E-13, 1.7689E-11
DataValue, -0.54, 0.1, 1.7778E-11, -4.6000000000000006E-14, 1.4E-14, 4.6000000000000006E-14, 1.4E-14, 1.7778E-11
DataValue, -0.52, 0.1, 1.8434E-11, -1.5000000000000002E-14, -5.2000000000000006E-14, 1.5000000000000002E-14, 5.2000000000000006E-14, 1.8434E-11
DataValue, -0.5, 0.1, 1.8937E-11, 4.3000000000000006E-14, -9.9000000000000007E-14, 4.3000000000000006E-14, 9.9000000000000007E-14, 1.8937E-11
DataValue, -0.48000000000000004, 0.1, 1.9567E-11, -1.6E-14, -1.8000000000000002E-14, 1.6E-14, 1.8000000000000002E-14, 1.9567E-11
DataValue, -0.46, 0.1, 1.9793E-11, -3.5E-14, -3.8E-14, 3.5E-14, 3.8E-14, 1.9793E-11
DataValue, -0.44, 0.1, 2.005E-11, -4.7E-14, -4.5000000000000004E-14, 4.7E-14, 4.5000000000000004E-14, 2.005E-11
DataValue, -0.42000000000000004, 0.1, 2.0173000000000003E-11, -3.5E-14, -3.6000000000000004E-14, 3.5E-14, 3.6000000000000004E-14, 2.0173000000000003E-11
DataValue, -0.4, 0.1, 2.0269000000000003E-11, -8.0000000000000013E-14, 2.6000000000000003E-14, 8.0000000000000013E-14, 2.6000000000000003E-14, 2.0269000000000003E-11
DataValue, -0.38, 0.1, 2.0369E-11, -7E-14, 1.2000000000000001E-14, 7E-14, 1.2000000000000001E-14, 2.0369E-11
DataValue, -0.36000000000000004, 0.1, 2.056E-11, -2.9E-14, 1E-15, 2.9E-14, 1E-15, 2.056E-11
DataValue, -0.34, 0.1, 2.0389E-11, -3.1E-14, -3.3000000000000005E-14, 3.1E-14, 3.3000000000000005E-14, 2.0389E-11
DataValue, -0.32, 0.1, 2.0563E-11, 1.0500000000000001E-13, -3.6000000000000004E-14, 1.0500000000000001E-13, 3.6000000000000004E-14, 2.0563E-11
DataValue, -0.3, 0.1, 2.0632000000000002E-11, -2.4000000000000002E-14, -1E-15, 2.4000000000000002E-14, 1E-15, 2.0632000000000002E-11
DataValue, -0.28, 0.1, 2.0671E-11, -3.9000000000000004E-14, -1.0000000000000002E-14, 3.9000000000000004E-14, 1.0000000000000002E-14, 2.0671E-11
DataValue, -0.26, 0.1, 2.0687000000000002E-11, -1.06E-13, -3.2E-14, 1.06E-13, 3.2E-14, 2.0687000000000002E-11
DataValue, -0.24000000000000002, 0.1, 2.0601E-11, -3.2E-14, -7E-15, 3.2E-14, 7E-15, 2.0601E-11
DataValue, -0.22, 0.1, 2.0494E-11, -2.4000000000000002E-14, -3.0000000000000005E-14, 2.4000000000000002E-14, 3.0000000000000005E-14, 2.0494E-11
DataValue, -0.2, 0.1, 2.0777000000000002E-11, -1.06E-13, -1.0000000000000002E-14, 1.06E-13, 1.0000000000000002E-14, 2.0777000000000002E-11
DataValue, -0.18000000000000002, 0.1, 2.0568000000000002E-11, 4.0000000000000006E-14, -1.18E-13, 4.0000000000000006E-14, 1.18E-13, 2.0568000000000002E-11
DataValue, -0.16, 0.1, 2.0641E-11, 2.0400000000000001E-13, -2.33E-13, 2.0400000000000001E-13, 2.33E-13, 2.0641E-11
DataValue, -0.14, 0.1, 2.0731E-11, 6.0300000000000006E-13, -5.7500000000000007E-13, 6.0300000000000006E-13, 5.7500000000000007E-13, 2.0731E-11
DataValue, -0.12000000000000001, 0.1, 2.0603000000000002E-11, 1.2790000000000001E-12, -1.3320000000000002E-12, 1.2790000000000001E-12, 1.3320000000000002E-12, 2.0603000000000002E-11
DataValue, -0.1, 0.1, 2.0615E-11, 2.9800000000000002E-12, -3.0010000000000002E-12, 2.9800000000000002E-12, 3.0010000000000002E-12, 2.0615E-11
DataValue, -0.08, 0.1, 2.0731E-11, 7.0370000000000008E-12, -6.9950000000000008E-12, 7.0370000000000008E-12, 6.9950000000000008E-12, 2.0731E-11
DataValue, -0.060000000000000005, 0.1, 2.0722E-11, 1.611E-11, -1.6094E-11, 1.611E-11, 1.6094E-11, 2.0722E-11
DataValue, -0.04, 0.1, 2.081E-11, 3.6872E-11, -3.6841E-11, 3.6872E-11, 3.6841E-11, 2.081E-11
DataValue, -0.02, 0.1, 2.0897E-11, 8.3026E-11, -8.2739000000000008E-11, 8.3026E-11, 8.2739000000000008E-11, 2.0897E-11
DataValue, 0, 0.1, 2.0848E-11, 1.8384400000000002E-10, -1.8351900000000002E-10, 1.8384400000000002E-10, 1.8351900000000002E-10, 2.0848E-11
DataValue, 0.02, 0.1, 2.0885E-11, 3.95968E-10, -3.9454200000000003E-10, 3.95968E-10, 3.9454200000000003E-10, 2.0885E-11
DataValue, 0.04, 0.1, 2.0863000000000003E-11, 8.1747200000000009E-10, -8.1571100000000008E-10, 8.1747200000000009E-10, 8.1571100000000008E-10, 2.0863000000000003E-11
DataValue, 0.060000000000000005, 0.1, 2.0826000000000002E-11, 1.61718E-09, -1.60782E-09, 1.61718E-09, 1.60782E-09, 2.0826000000000002E-11
DataValue, 0.08, 0.1, 2.0759000000000002E-11, 3.0836E-09, -3.08295E-09, 3.0836E-09, 3.08295E-09, 2.0759000000000002E-11
DataValue, 0.1, 0.1, 2.0841E-11, 5.58723E-09, -5.57765E-09, 5.58723E-09, 5.57765E-09, 2.0841E-11
DataValue, 0.12000000000000001, 0.1, 2.0840000000000002E-11, 9.71366E-09, -9.69719E-09, 9.71366E-09, 9.69719E-09, 2.0840000000000002E-11
