
SetupTitle, ITO_IdVG
PrimitiveTest, I/V Sweep
TestParameter, Context.MainFrame, 4156C
TestParameter, Channel.UnitType, SMU, SMU, SMU
TestParameter, Channel.Unit, SMU3:HR, SMU1:HR, SMU4:HR
TestParameter, Channel.IName, Ig, Id, Is
TestParameter, Channel.VName, Vg, Vd, Vs
TestParameter, Channel.Mode, V, V, COMMON
TestParameter, Channel.Func, VAR1, CONST, CONST
TestParameter, Channel.Index, 
TestParameter, Channel.Time, 
TestParameter, Measurement.Port.Unit, SMU3:HR, SMU1:HR, SMU4:HR
TestParameter, Measurement.Port.SeriesResistor, NONE, NONE, NONE
TestParameter, Measurement.Port.Filter, ON, ON, ON
TestParameter, Measurement.Primary.Locus, Double
TestParameter, Measurement.Primary.Scale, LINEAR
TestParameter, Measurement.Primary.Start, -2
TestParameter, Measurement.Primary.Stop, 2
TestParameter, Measurement.Primary.Step, 0.02
TestParameter, Measurement.Primary.Compliance, 0.1
TestParameter, Measurement.Primary.PowerCompliance, 0
TestParameter, Measurement.Aborting.Condition, CONTINUE AT ANY
TestParameter, Measurement.PostOutput.Value, START
TestParameter, Measurement.PostOutput.Retention, OFF
TestParameter, Measurement.Bias.Source, -2, 0.1, 0
TestParameter, Measurement.Bias.Compliance, 0.1, 0.1, 0.1
TestParameter, Measurement.Monitor.Unit, SMU3:HR, SMU1:HR, SMU4:HR
TestParameter, Measurement.Monitor.Adc, HR ADC, HR ADC, HR ADC
TestParameter, Measurement.Monitor.RangingMode, LIMITED, LIMITED, LIMITED
TestParameter, Measurement.Monitor.RangeBoundary, 1nA, 1nA, 1nA
TestParameter, Measurement.Monitor.RangeRating, BY FULL RANGE, BY FULL RANGE, BY FULL RANGE
TestParameter, Measurement.Monitor.RangeRatingCoeff, 50, 50, 50
TestParameter, Measurement.Timing.Hold, 0
TestParameter, Measurement.Timing.Delay, 0.05
TestParameter, Measurement.Adc.HighResolution.AutoZero, OFF
TestParameter, Measurement.Adc.HighResolution.Mode, AUTO
TestParameter, Measurement.Adc.HighResolution.Coeff, 1
TestParameter, Measurement.Ag16440ASelector.SemiconductorRelay.Channel1, DEFAULT
TestParameter, Measurement.Ag16440ASelector.SemiconductorRelay.Channel3, DEFAULT
TestParameter, Function.User.Name, absId, absIs, absIg
TestParameter, Function.User.Unit, A, A, A
TestParameter, Function.User.Definition, abs(Id), abs(Is), abs(Ig)
TestParameter, Output.Graph.Enabled, true
TestParameter, Output.Graph.XAxis.Data, Vg
TestParameter, Output.Graph.XAxis.Scale, Linear
TestParameter, Output.Graph.XAxis.Left, -2
TestParameter, Output.Graph.XAxis.Right, 2
TestParameter, Output.Graph.YAxis.Data, absId, absIs, absIg
TestParameter, Output.Graph.YAxis.Scale, Log, Log, Log
TestParameter, Output.Graph.YAxis.Bottom, 1E-15, 1E-15, 1E-15
TestParameter, Output.Graph.YAxis.Top, 0.1, 0.1, 0.1
TestParameter, Output.Graph.YAxis.Group, , , 
TestParameter, Output.List.Data, Vg, Vd, Id, Is, Ig
TestParameter, AutoAnalysis.Interpolation, false
TestParameter, AutoAnalysis.Line1.Enabled, false
TestParameter, AutoAnalysis.Line1.Type, 1
TestParameter, AutoAnalysis.Line1.Fix, True
TestParameter, AutoAnalysis.Line1.YAxis, 0
TestParameter, AutoAnalysis.Line1.Point1.Type, 0
TestParameter, AutoAnalysis.Line1.Point1.XY.X, 
TestParameter, AutoAnalysis.Line1.Point1.XY.Y, 
TestParameter, AutoAnalysis.Line1.Point1.Data.Var, 
TestParameter, AutoAnalysis.Line1.Point1.Data.Condition, 
TestParameter, AutoAnalysis.Line1.Point1.Data.Start, false
TestParameter, AutoAnalysis.Line1.Point1.Data.StartVar, 
TestParameter, AutoAnalysis.Line1.Point1.Data.StartCondition, 
TestParameter, AutoAnalysis.Line1.Point2.Type, 0
TestParameter, AutoAnalysis.Line1.Point2.XY.X, 
TestParameter, AutoAnalysis.Line1.Point2.XY.Y, 
TestParameter, AutoAnalysis.Line1.Point2.Data.Var, 
TestParameter, AutoAnalysis.Line1.Point2.Data.Condition, 
TestParameter, AutoAnalysis.Line1.Point2.Data.Start, false
TestParameter, AutoAnalysis.Line1.Point2.Data.StartVar, 
TestParameter, AutoAnalysis.Line1.Point2.Data.StartCondition, 
TestParameter, AutoAnalysis.Line1.GradientExpr, 0
TestParameter, AutoAnalysis.Line2.Enabled, false
TestParameter, AutoAnalysis.Line2.Type, 1
TestParameter, AutoAnalysis.Line2.Fix, True
TestParameter, AutoAnalysis.Line2.YAxis, 0
TestParameter, AutoAnalysis.Line2.Point1.Type, 0
TestParameter, AutoAnalysis.Line2.Point1.XY.X, 
TestParameter, AutoAnalysis.Line2.Point1.XY.Y, 
TestParameter, AutoAnalysis.Line2.Point1.Data.Var, 
TestParameter, AutoAnalysis.Line2.Point1.Data.Condition, 
TestParameter, AutoAnalysis.Line2.Point1.Data.Start, false
TestParameter, AutoAnalysis.Line2.Point1.Data.StartVar, 
TestParameter, AutoAnalysis.Line2.Point1.Data.StartCondition, 
TestParameter, AutoAnalysis.Line2.Point2.Type, 0
TestParameter, AutoAnalysis.Line2.Point2.XY.X, 
TestParameter, AutoAnalysis.Line2.Point2.XY.Y, 
TestParameter, AutoAnalysis.Line2.Point2.Data.Var, 
TestParameter, AutoAnalysis.Line2.Point2.Data.Condition, 
TestParameter, AutoAnalysis.Line2.Point2.Data.Start, false
TestParameter, AutoAnalysis.Line2.Point2.Data.StartVar, 
TestParameter, AutoAnalysis.Line2.Point2.Data.StartCondition, 
TestParameter, AutoAnalysis.Line2.GradientExpr, 0
TestParameter, AutoAnalysis.Marker.Enabled, false
TestParameter, AutoAnalysis.Marker.Data.Var, 
TestParameter, AutoAnalysis.Marker.Data.Condition, 
TestParameter, AutoAnalysis.Marker.Data.Start, false
TestParameter, AutoAnalysis.Marker.Data.StartVar, 
TestParameter, AutoAnalysis.Marker.Data.StartCondition, 
MetaData, TestRecord.EntryPoint, true
MetaData, TestRecord.RecordTime, 12/18/2022 18:07:31
MetaData, TestRecord.TestTarget, 
MetaData, TestRecord.IterationIndex, 81
MetaData, TestRecord.Preservation, true
MetaData, TestRecord.Flag, 
MetaData, TestRecord.Remarks, T=130C 2R sample
MetaData, TestRecord.LinkKey, 7aaf1bc0-d2e3-403e-957a-5c4b46fca2fd
Dimension1, 402, 402, 402, 402, 402, 402, 402, 402
Dimension2, 1, 1, 1, 1, 1, 1, 1, 1
DataName, Vg, Vd, Ig, Id, Is, absId, absIs, absIg
DataValue, -2, 0.1, -1.39723E-09, 6.395E-12, 1.36E-13, 6.395E-12, 1.36E-13, 1.39723E-09
DataValue, -1.9800000000000002, 0.1, -8.8989E-10, 6.702E-12, 1.0350000000000001E-12, 6.702E-12, 1.0350000000000001E-12, 8.8989E-10
DataValue, -1.9600000000000002, 0.1, -6.04162E-10, 5.7410000000000007E-12, 8.6300000000000006E-13, 5.7410000000000007E-12, 8.6300000000000006E-13, 6.04162E-10
DataValue, -1.9400000000000002, 0.1, -4.20828E-10, 5.0280000000000008E-12, 8.2800000000000011E-13, 5.0280000000000008E-12, 8.2800000000000011E-13, 4.20828E-10
DataValue, -1.9200000000000002, 0.1, -3.31677E-10, 4.451E-12, 7.2200000000000005E-13, 4.451E-12, 7.2200000000000005E-13, 3.31677E-10
DataValue, -1.9000000000000001, 0.1, -2.6612E-10, 4.138E-12, 6.58E-13, 4.138E-12, 6.58E-13, 2.6612E-10
DataValue, -1.8800000000000001, 0.1, -1.79109E-10, 3.8060000000000005E-12, 6.2000000000000008E-13, 3.8060000000000005E-12, 6.2000000000000008E-13, 1.79109E-10
DataValue, -1.86, 0.1, -2.27258E-10, 3.4020000000000002E-12, 6.06E-13, 3.4020000000000002E-12, 6.06E-13, 2.27258E-10
DataValue, -1.84, 0.1, -8.3538000000000012E-11, 3.5440000000000002E-12, 5.15E-13, 3.5440000000000002E-12, 5.15E-13, 8.3538000000000012E-11
DataValue, -1.82, 0.1, -8.7075000000000007E-11, 3.3570000000000003E-12, 5.3300000000000005E-13, 3.3570000000000003E-12, 5.3300000000000005E-13, 8.7075000000000007E-11
DataValue, -1.8, 0.1, -6.608800000000001E-11, 3.0510000000000002E-12, 6.6E-13, 3.0510000000000002E-12, 6.6E-13, 6.608800000000001E-11
DataValue, -1.78, 0.1, -2.231E-12, 2.6220000000000003E-12, 4.69E-13, 2.6220000000000003E-12, 4.69E-13, 2.231E-12
DataValue, -1.76, 0.1, -7.3607500000000007E-10, 3.0100000000000003E-12, 4.8500000000000005E-13, 3.0100000000000003E-12, 4.8500000000000005E-13, 7.3607500000000007E-10
DataValue, -1.74, 0.1, -8.5430000000000009E-11, 2.092E-12, 2.9000000000000003E-13, 2.092E-12, 2.9000000000000003E-13, 8.5430000000000009E-11
DataValue, -1.72, 0.1, 1.7218000000000002E-11, 2.209E-12, 3.6100000000000003E-13, 2.209E-12, 3.6100000000000003E-13, 1.7218000000000002E-11
DataValue, -1.7000000000000002, 0.1, -1.0580000000000001E-12, 2.314E-12, 3.7000000000000004E-13, 2.314E-12, 3.7000000000000004E-13, 1.0580000000000001E-12
DataValue, -1.6800000000000002, 0.1, 7.0080000000000008E-12, 1.868E-12, 3.6700000000000005E-13, 1.868E-12, 3.6700000000000005E-13, 7.0080000000000008E-12
DataValue, -1.6600000000000001, 0.1, 3.5873E-11, 2.9800000000000004E-13, 1.0330000000000001E-12, 2.9800000000000004E-13, 1.0330000000000001E-12, 3.5873E-11
DataValue, -1.6400000000000001, 0.1, -3.5096000000000005E-11, 1.5890000000000002E-12, 7.94E-13, 1.5890000000000002E-12, 7.94E-13, 3.5096000000000005E-11
DataValue, -1.62, 0.1, 5.819E-11, 1.318E-12, 3.2200000000000004E-13, 1.318E-12, 3.2200000000000004E-13, 5.819E-11
DataValue, -1.6, 0.1, -3.17835E-10, 1.395E-12, 3.2300000000000004E-13, 1.395E-12, 3.2300000000000004E-13, 3.17835E-10
DataValue, -1.58, 0.1, 2.118E-12, 1.2790000000000001E-12, 6.9400000000000007E-13, 1.2790000000000001E-12, 6.9400000000000007E-13, 2.118E-12
DataValue, -1.56, 0.1, 7.7022E-11, 1.124E-12, 2.95E-13, 1.124E-12, 2.95E-13, 7.7022E-11
DataValue, -1.54, 0.1, 1.5342E-11, 1.0350000000000001E-12, 2.92E-13, 1.0350000000000001E-12, 2.92E-13, 1.5342E-11
DataValue, -1.52, 0.1, 5.0113E-11, 9.010000000000001E-13, 2.56E-13, 9.010000000000001E-13, 2.56E-13, 5.0113E-11
DataValue, -1.5, 0.1, 5.1888000000000003E-11, 8.290000000000001E-13, 2.2000000000000002E-13, 8.290000000000001E-13, 2.2000000000000002E-13, 5.1888000000000003E-11
DataValue, -1.48, 0.1, 5.4797000000000007E-11, 7.98E-13, 2.2000000000000002E-13, 7.98E-13, 2.2000000000000002E-13, 5.4797000000000007E-11
DataValue, -1.46, 0.1, 6.0134E-11, 7.6100000000000009E-13, 2.3000000000000003E-13, 7.6100000000000009E-13, 2.3000000000000003E-13, 6.0134E-11
DataValue, -1.4400000000000002, 0.1, 6.634E-11, 6.6800000000000008E-13, 2.1000000000000001E-13, 6.6800000000000008E-13, 2.1000000000000001E-13, 6.634E-11
DataValue, -1.4200000000000002, 0.1, 1.19476E-10, 7.07E-13, 1.9500000000000003E-13, 7.07E-13, 1.9500000000000003E-13, 1.19476E-10
DataValue, -1.4000000000000001, 0.1, 1.2215700000000002E-10, 6.2400000000000007E-13, 2.0800000000000002E-13, 6.2400000000000007E-13, 2.0800000000000002E-13, 1.2215700000000002E-10
DataValue, -1.3800000000000001, 0.1, 9.065E-11, 5.7800000000000006E-13, 2E-13, 5.7800000000000006E-13, 2E-13, 9.065E-11
DataValue, -1.36, 0.1, 9.5803000000000008E-11, 4.86E-13, 1.7800000000000002E-13, 4.86E-13, 1.7800000000000002E-13, 9.5803000000000008E-11
DataValue, -1.34, 0.1, -3.1528700000000003E-10, 6.11E-13, 1.6100000000000002E-13, 6.11E-13, 1.6100000000000002E-13, 3.1528700000000003E-10
DataValue, -1.32, 0.1, 6.507100000000001E-11, 4.71E-13, 1.7300000000000002E-13, 4.71E-13, 1.7300000000000002E-13, 6.507100000000001E-11
DataValue, -1.3, 0.1, 8.0425000000000009E-11, 4.2000000000000003E-13, 1.58E-13, 4.2000000000000003E-13, 1.58E-13, 8.0425000000000009E-11
DataValue, -1.28, 0.1, 8.4203E-11, 3.78E-13, 1.5000000000000002E-13, 3.78E-13, 1.5000000000000002E-13, 8.4203E-11
DataValue, -1.26, 0.1, 8.6029E-11, 3.5800000000000004E-13, 1.23E-13, 3.5800000000000004E-13, 1.23E-13, 8.6029E-11
DataValue, -1.24, 0.1, 9.0943000000000011E-11, 3.3700000000000003E-13, 1.3E-13, 3.3700000000000003E-13, 1.3E-13, 9.0943000000000011E-11
DataValue, -1.22, 0.1, -4.6176300000000004E-10, 3.54E-13, 1.34E-13, 3.54E-13, 1.34E-13, 4.6176300000000004E-10
DataValue, -1.2, 0.1, 6.9088E-11, 2.82E-13, 2.93E-13, 2.82E-13, 2.93E-13, 6.9088E-11
DataValue, -1.1800000000000002, 0.1, 1.34022E-10, 2.43E-13, 1.0200000000000001E-13, 2.43E-13, 1.0200000000000001E-13, 1.34022E-10
DataValue, -1.1600000000000001, 0.1, -4.8568700000000008E-10, 2.6300000000000004E-13, 1.1500000000000002E-13, 2.6300000000000004E-13, 1.1500000000000002E-13, 4.8568700000000008E-10
DataValue, -1.1400000000000001, 0.1, 7.9224000000000007E-11, 1.8400000000000002E-13, 1.58E-13, 1.8400000000000002E-13, 1.58E-13, 7.9224000000000007E-11
DataValue, -1.12, 0.1, 1.4618500000000002E-10, 2.06E-13, -2.485E-12, 2.06E-13, 2.485E-12, 1.4618500000000002E-10
DataValue, -1.1, 0.1, 3.6397000000000005E-11, 1.6800000000000002E-13, 6.3000000000000009E-14, 1.6800000000000002E-13, 6.3000000000000009E-14, 3.6397000000000005E-11
DataValue, -1.08, 0.1, 1.31725E-10, 1.65E-13, 2.9E-14, 1.65E-13, 2.9E-14, 1.31725E-10
DataValue, -1.06, 0.1, -3.7637900000000004E-10, 2.58E-13, 9.0000000000000011E-15, 2.58E-13, 9.0000000000000011E-15, 3.7637900000000004E-10
DataValue, -1.04, 0.1, 7.5438000000000009E-11, 2.0100000000000003E-13, 2E-13, 2.0100000000000003E-13, 2E-13, 7.5438000000000009E-11
DataValue, -1.02, 0.1, 1.42441E-10, 2.43E-13, -1.3E-13, 2.43E-13, 1.3E-13, 1.42441E-10
DataValue, -1, 0.1, 5.65221E-10, 2.57E-13, -2.69E-13, 2.57E-13, 2.69E-13, 5.65221E-10
DataValue, -0.98000000000000009, 0.1, 1.39069E-10, 5.1E-13, -4.01E-13, 5.1E-13, 4.01E-13, 1.39069E-10
DataValue, -0.96000000000000008, 0.1, 1.27889E-10, 8.1300000000000007E-13, -7.100000000000001E-13, 8.1300000000000007E-13, 7.100000000000001E-13, 1.27889E-10
DataValue, -0.94000000000000006, 0.1, -6.1226700000000007E-10, 1.6950000000000002E-12, -1.0890000000000001E-12, 1.6950000000000002E-12, 1.0890000000000001E-12, 6.1226700000000007E-10
DataValue, -0.92, 0.1, 3.6577000000000005E-11, 1.274E-12, -1.9660000000000003E-12, 1.274E-12, 1.9660000000000003E-12, 3.6577000000000005E-11
DataValue, -0.9, 0.1, 1.40596E-10, 3.0570000000000004E-12, -2.9340000000000002E-12, 3.0570000000000004E-12, 2.9340000000000002E-12, 1.40596E-10
DataValue, -0.88, 0.1, 1.19587E-10, 4.8680000000000007E-12, -4.7450000000000005E-12, 4.8680000000000007E-12, 4.7450000000000005E-12, 1.19587E-10
DataValue, -0.86, 0.1, 1.1777E-10, 7.804E-12, -7.574E-12, 7.804E-12, 7.574E-12, 1.1777E-10
DataValue, -0.84000000000000008, 0.1, 1.12439E-10, 1.2447000000000001E-11, -1.2144000000000002E-11, 1.2447000000000001E-11, 1.2144000000000002E-11, 1.12439E-10
DataValue, -0.82000000000000006, 0.1, 1.16308E-10, 1.9812E-11, -1.9523E-11, 1.9812E-11, 1.9523E-11, 1.16308E-10
DataValue, -0.8, 0.1, 1.12677E-10, 3.1340000000000005E-11, -3.0795E-11, 3.1340000000000005E-11, 3.0795E-11, 1.12677E-10
DataValue, -0.78, 0.1, 1.4022100000000002E-10, 4.9889000000000006E-11, -4.9123E-11, 4.9889000000000006E-11, 4.9123E-11, 1.4022100000000002E-10
DataValue, -0.76, 0.1, 1.31683E-10, 7.9892000000000012E-11, -7.8402E-11, 7.9892000000000012E-11, 7.8402E-11, 1.31683E-10
DataValue, -0.74, 0.1, 7.0704000000000007E-11, 1.25205E-10, -1.23277E-10, 1.25205E-10, 1.23277E-10, 7.0704000000000007E-11
DataValue, -0.72000000000000008, 0.1, 4.85688E-10, 1.9987800000000002E-10, -1.97186E-10, 1.9987800000000002E-10, 1.97186E-10, 4.85688E-10
DataValue, -0.70000000000000007, 0.1, 1.52261E-10, 3.1969400000000004E-10, -3.194E-10, 3.1969400000000004E-10, 3.194E-10, 1.52261E-10
DataValue, -0.68, 0.1, 8.8049000000000013E-11, 5.0987600000000007E-10, -5.04214E-10, 5.0987600000000007E-10, 5.04214E-10, 8.8049000000000013E-11
DataValue, -0.66, 0.1, 1.21526E-10, 8.140980000000001E-10, -8.0474400000000009E-10, 8.140980000000001E-10, 8.0474400000000009E-10, 1.21526E-10
DataValue, -0.64, 0.1, 1.19467E-10, 1.28054E-09, -1.25199E-09, 1.28054E-09, 1.25199E-09, 1.19467E-10
DataValue, -0.62, 0.1, 2.4805000000000002E-11, 2.05115E-09, -2.04373E-09, 2.05115E-09, 2.04373E-09, 2.4805000000000002E-11
DataValue, -0.6, 0.1, 7.3107000000000007E-11, 3.31208E-09, -3.30097E-09, 3.31208E-09, 3.30097E-09, 7.3107000000000007E-11
DataValue, -0.58000000000000007, 0.1, 1.38586E-10, 5.2435E-09, -5.21539E-09, 5.2435E-09, 5.21539E-09, 1.38586E-10
DataValue, -0.56, 0.1, 1.27959E-10, 8.32256E-09, -8.30251E-09, 8.32256E-09, 8.30251E-09, 1.27959E-10
DataValue, -0.54, 0.1, 1.9750600000000002E-10, 1.2948199999999999E-08, -1.2797399999999999E-08, 1.2948199999999999E-08, 1.2797399999999999E-08, 1.9750600000000002E-10
DataValue, -0.52, 0.1, 1.55726E-10, 2.0056099999999997E-08, -2.00026E-08, 2.0056099999999997E-08, 2.00026E-08, 1.55726E-10
DataValue, -0.5, 0.1, 1.47214E-10, 3.0662899999999996E-08, -3.0635499999999997E-08, 3.0662899999999996E-08, 3.0635499999999997E-08, 1.47214E-10
DataValue, -0.48000000000000004, 0.1, 1.5200600000000002E-10, 4.6024099999999995E-08, -4.5892199999999996E-08, 4.6024099999999995E-08, 4.5892199999999996E-08, 1.5200600000000002E-10
DataValue, -0.46, 0.1, 1.5246E-10, 6.786299999999999E-08, -6.788379999999999E-08, 6.786299999999999E-08, 6.788379999999999E-08, 1.5246E-10
DataValue, -0.44, 0.1, 1.6042500000000002E-10, 9.78772E-08, -9.7963899999999984E-08, 9.78772E-08, 9.7963899999999984E-08, 1.6042500000000002E-10
DataValue, -0.42000000000000004, 0.1, 1.4838E-10, 1.36809E-07, -1.36441E-07, 1.36809E-07, 1.36441E-07, 1.4838E-10
DataValue, -0.4, 0.1, 1.5211800000000002E-10, 1.89763E-07, -1.90234E-07, 1.89763E-07, 1.90234E-07, 1.5211800000000002E-10
DataValue, -0.38, 0.1, 1.4595800000000001E-10, 2.5789699999999997E-07, -2.57656E-07, 2.5789699999999997E-07, 2.57656E-07, 1.4595800000000001E-10
DataValue, -0.36000000000000004, 0.1, 1.8544E-10, 3.41775E-07, -3.4260999999999997E-07, 3.41775E-07, 3.4260999999999997E-07, 1.8544E-10
DataValue, -0.34, 0.1, 1.7755200000000001E-10, 4.48485E-07, -4.48996E-07, 4.48485E-07, 4.48996E-07, 1.7755200000000001E-10
DataValue, -0.32, 0.1, 4.7753E-11, 5.7919399999999994E-07, -5.80543E-07, 5.7919399999999994E-07, 5.80543E-07, 4.7753E-11
DataValue, -0.3, 0.1, 1.1277300000000002E-10, 7.38795E-07, -7.40683E-07, 7.38795E-07, 7.40683E-07, 1.1277300000000002E-10
DataValue, -0.28, 0.1, 1.7447900000000002E-10, 9.31522E-07, -9.31454E-07, 9.31522E-07, 9.31454E-07, 1.7447900000000002E-10
DataValue, -0.26, 0.1, 1.56943E-10, 1.1673900000000002E-06, -1.16418E-06, 1.1673900000000002E-06, 1.16418E-06, 1.56943E-10
DataValue, -0.24000000000000002, 0.1, 6.664700000000001E-11, 1.4389400000000002E-06, -1.44107E-06, 1.4389400000000002E-06, 1.44107E-06, 6.664700000000001E-11
DataValue, -0.22, 0.1, 1.31852E-10, 1.7641300000000002E-06, -1.7635100000000002E-06, 1.7641300000000002E-06, 1.7635100000000002E-06, 1.31852E-10
DataValue, -0.2, 0.1, 5.5154500000000008E-10, 2.16045E-06, -2.15787E-06, 2.16045E-06, 2.15787E-06, 5.5154500000000008E-10
DataValue, -0.18000000000000002, 0.1, 1.91822E-10, 2.6065100000000002E-06, -2.6121000000000004E-06, 2.6065100000000002E-06, 2.6121000000000004E-06, 1.91822E-10
DataValue, -0.16, 0.1, 1.7527700000000001E-10, 3.1447800000000002E-06, -3.1502800000000004E-06, 3.1447800000000002E-06, 3.1502800000000004E-06, 1.7527700000000001E-10
DataValue, -0.14, 0.1, 5.5300000000000005E-11, 3.8026700000000005E-06, -3.81981E-06, 3.8026700000000005E-06, 3.81981E-06, 5.5300000000000005E-11
DataValue, -0.12000000000000001, 0.1, 1.11476E-10, 4.5171E-06, -4.5241300000000008E-06, 4.5171E-06, 4.5241300000000008E-06, 1.11476E-10
DataValue, -0.1, 0.1, 1.65348E-10, 5.3970800000000007E-06, -5.4040800000000008E-06, 5.3970800000000007E-06, 5.4040800000000008E-06, 1.65348E-10
DataValue, -0.08, 0.1, 1.5495900000000002E-10, 6.3233900000000005E-06, -6.3424300000000009E-06, 6.3233900000000005E-06, 6.3424300000000009E-06, 1.5495900000000002E-10
DataValue, -0.060000000000000005, 0.1, 2.6207E-10, 7.4645200000000008E-06, -7.4753300000000006E-06, 7.4645200000000008E-06, 7.4753300000000006E-06, 2.6207E-10
DataValue, -0.04, 0.1, 2.1422200000000003E-10, 8.66386E-06, -8.69412E-06, 8.66386E-06, 8.69412E-06, 2.1422200000000003E-10
DataValue, -0.02, 0.1, 2.0245200000000003E-10, 1.0015000000000002E-05, -1.004329E-05, 1.0015000000000002E-05, 1.004329E-05, 2.0245200000000003E-10
DataValue, 0, 0.1, 1.9861200000000002E-10, 1.1474E-05, -1.1519700000000001E-05, 1.1474E-05, 1.1519700000000001E-05, 1.9861200000000002E-10
DataValue, 0.02, 0.1, 1.96469E-10, 1.31657E-05, -1.3211700000000001E-05, 1.31657E-05, 1.3211700000000001E-05, 1.96469E-10
DataValue, 0.04, 0.1, 2.0401600000000003E-10, 1.4950100000000001E-05, -1.4997300000000001E-05, 1.4950100000000001E-05, 1.4997300000000001E-05, 2.0401600000000003E-10
