
SetupTitle, ITO_IdVG
PrimitiveTest, I/V Sweep
TestParameter, Context.MainFrame, 4156C
TestParameter, Channel.UnitType, SMU, SMU, SMU
TestParameter, Channel.Unit, SMU3:HR, SMU1:HR, SMU4:HR
TestParameter, Channel.IName, Ig, Id, Is
TestParameter, Channel.VName, Vg, Vd, Vs
TestParameter, Channel.Mode, V, V, COMMON
TestParameter, Channel.Func, VAR1, CONST, CONST
TestParameter, Channel.Index, 
TestParameter, Channel.Time, 
TestParameter, Measurement.Port.Unit, SMU3:HR, SMU1:HR, SMU4:HR
TestParameter, Measurement.Port.SeriesResistor, NONE, NONE, NONE
TestParameter, Measurement.Port.Filter, ON, ON, ON
TestParameter, Measurement.Primary.Locus, Double
TestParameter, Measurement.Primary.Scale, LINEAR
TestParameter, Measurement.Primary.Start, -2
TestParameter, Measurement.Primary.Stop, 2
TestParameter, Measurement.Primary.Step, 0.02
TestParameter, Measurement.Primary.Compliance, 0.1
TestParameter, Measurement.Primary.PowerCompliance, 0
TestParameter, Measurement.Aborting.Condition, CONTINUE AT ANY
TestParameter, Measurement.PostOutput.Value, START
TestParameter, Measurement.PostOutput.Retention, OFF
TestParameter, Measurement.Bias.Source, -2, 0.1, 0
TestParameter, Measurement.Bias.Compliance, 0.1, 0.1, 0.1
TestParameter, Measurement.Monitor.Unit, SMU3:HR, SMU1:HR, SMU4:HR
TestParameter, Measurement.Monitor.Adc, HR ADC, HR ADC, HR ADC
TestParameter, Measurement.Monitor.RangingMode, LIMITED, LIMITED, LIMITED
TestParameter, Measurement.Monitor.RangeBoundary, 1nA, 1nA, 1nA
TestParameter, Measurement.Monitor.RangeRating, BY FULL RANGE, BY FULL RANGE, BY FULL RANGE
TestParameter, Measurement.Monitor.RangeRatingCoeff, 50, 50, 50
TestParameter, Measurement.Timing.Hold, 0
TestParameter, Measurement.Timing.Delay, 0.05
TestParameter, Measurement.Adc.HighResolution.AutoZero, OFF
TestParameter, Measurement.Adc.HighResolution.Mode, AUTO
TestParameter, Measurement.Adc.HighResolution.Coeff, 1
TestParameter, Measurement.Ag16440ASelector.SemiconductorRelay.Channel1, DEFAULT
TestParameter, Measurement.Ag16440ASelector.SemiconductorRelay.Channel3, DEFAULT
TestParameter, Function.User.Name, absId, absIs, absIg
TestParameter, Function.User.Unit, A, A, A
TestParameter, Function.User.Definition, abs(Id), abs(Is), abs(Ig)
TestParameter, Output.Graph.Enabled, true
TestParameter, Output.Graph.XAxis.Data, Vg
TestParameter, Output.Graph.XAxis.Scale, Linear
TestParameter, Output.Graph.XAxis.Left, -2
TestParameter, Output.Graph.XAxis.Right, 2
TestParameter, Output.Graph.YAxis.Data, absId, absIs, absIg
TestParameter, Output.Graph.YAxis.Scale, Log, Log, Log
TestParameter, Output.Graph.YAxis.Bottom, 1E-15, 1E-15, 1E-15
TestParameter, Output.Graph.YAxis.Top, 0.1, 0.1, 0.1
TestParameter, Output.Graph.YAxis.Group, , , 
TestParameter, Output.List.Data, Vg, Vd, Id, Is, Ig
TestParameter, AutoAnalysis.Interpolation, false
TestParameter, AutoAnalysis.Line1.Enabled, false
TestParameter, AutoAnalysis.Line1.Type, 1
TestParameter, AutoAnalysis.Line1.Fix, True
TestParameter, AutoAnalysis.Line1.YAxis, 0
TestParameter, AutoAnalysis.Line1.Point1.Type, 0
TestParameter, AutoAnalysis.Line1.Point1.XY.X, 
TestParameter, AutoAnalysis.Line1.Point1.XY.Y, 
TestParameter, AutoAnalysis.Line1.Point1.Data.Var, 
TestParameter, AutoAnalysis.Line1.Point1.Data.Condition, 
TestParameter, AutoAnalysis.Line1.Point1.Data.Start, false
TestParameter, AutoAnalysis.Line1.Point1.Data.StartVar, 
TestParameter, AutoAnalysis.Line1.Point1.Data.StartCondition, 
TestParameter, AutoAnalysis.Line1.Point2.Type, 0
TestParameter, AutoAnalysis.Line1.Point2.XY.X, 
TestParameter, AutoAnalysis.Line1.Point2.XY.Y, 
TestParameter, AutoAnalysis.Line1.Point2.Data.Var, 
TestParameter, AutoAnalysis.Line1.Point2.Data.Condition, 
TestParameter, AutoAnalysis.Line1.Point2.Data.Start, false
TestParameter, AutoAnalysis.Line1.Point2.Data.StartVar, 
TestParameter, AutoAnalysis.Line1.Point2.Data.StartCondition, 
TestParameter, AutoAnalysis.Line1.GradientExpr, 0
TestParameter, AutoAnalysis.Line2.Enabled, false
TestParameter, AutoAnalysis.Line2.Type, 1
TestParameter, AutoAnalysis.Line2.Fix, True
TestParameter, AutoAnalysis.Line2.YAxis, 0
TestParameter, AutoAnalysis.Line2.Point1.Type, 0
TestParameter, AutoAnalysis.Line2.Point1.XY.X, 
TestParameter, AutoAnalysis.Line2.Point1.XY.Y, 
TestParameter, AutoAnalysis.Line2.Point1.Data.Var, 
TestParameter, AutoAnalysis.Line2.Point1.Data.Condition, 
TestParameter, AutoAnalysis.Line2.Point1.Data.Start, false
TestParameter, AutoAnalysis.Line2.Point1.Data.StartVar, 
TestParameter, AutoAnalysis.Line2.Point1.Data.StartCondition, 
TestParameter, AutoAnalysis.Line2.Point2.Type, 0
TestParameter, AutoAnalysis.Line2.Point2.XY.X, 
TestParameter, AutoAnalysis.Line2.Point2.XY.Y, 
TestParameter, AutoAnalysis.Line2.Point2.Data.Var, 
TestParameter, AutoAnalysis.Line2.Point2.Data.Condition, 
TestParameter, AutoAnalysis.Line2.Point2.Data.Start, false
TestParameter, AutoAnalysis.Line2.Point2.Data.StartVar, 
TestParameter, AutoAnalysis.Line2.Point2.Data.StartCondition, 
TestParameter, AutoAnalysis.Line2.GradientExpr, 0
TestParameter, AutoAnalysis.Marker.Enabled, false
TestParameter, AutoAnalysis.Marker.Data.Var, 
TestParameter, AutoAnalysis.Marker.Data.Condition, 
TestParameter, AutoAnalysis.Marker.Data.Start, false
TestParameter, AutoAnalysis.Marker.Data.StartVar, 
TestParameter, AutoAnalysis.Marker.Data.StartCondition, 
MetaData, TestRecord.EntryPoint, true
MetaData, TestRecord.RecordTime, 12/18/2022 16:01:19
MetaData, TestRecord.TestTarget, 
MetaData, TestRecord.IterationIndex, 26
MetaData, TestRecord.Preservation, true
MetaData, TestRecord.Flag, 
MetaData, TestRecord.Remarks, T=40C 2R sample
MetaData, TestRecord.LinkKey, 6c8eb4fe-c534-4151-9b06-6d3357d1ca53
Dimension1, 402, 402, 402, 402, 402, 402, 402, 402
Dimension2, 1, 1, 1, 1, 1, 1, 1, 1
DataName, Vg, Vd, Ig, Id, Is, absId, absIs, absIg
DataValue, -2, 0.1, -2.55363E-10, 4.93E-13, 3.41E-13, 4.93E-13, 3.41E-13, 2.55363E-10
DataValue, -1.9800000000000002, 0.1, -8.8899E-11, 2.95E-13, 2.12E-13, 2.95E-13, 2.12E-13, 8.8899E-11
DataValue, -1.9600000000000002, 0.1, -1.04883E-10, 3.3400000000000004E-13, 2.0200000000000002E-13, 3.3400000000000004E-13, 2.0200000000000002E-13, 1.04883E-10
DataValue, -1.9400000000000002, 0.1, -7.121200000000001E-11, 7.6600000000000007E-13, 5.5000000000000005E-14, 7.6600000000000007E-13, 5.5000000000000005E-14, 7.121200000000001E-11
DataValue, -1.9200000000000002, 0.1, -4.2896000000000006E-11, 1.5600000000000002E-13, 7.4E-14, 1.5600000000000002E-13, 7.4E-14, 4.2896000000000006E-11
DataValue, -1.9000000000000001, 0.1, -4.2466E-11, 1.6000000000000003E-13, 3.6000000000000004E-14, 1.6000000000000003E-13, 3.6000000000000004E-14, 4.2466E-11
DataValue, -1.8800000000000001, 0.1, -4.0888E-11, 7.47E-13, -3.8E-14, 7.47E-13, 3.8E-14, 4.0888E-11
DataValue, -1.86, 0.1, -2.3355000000000003E-11, 6.6000000000000009E-14, -1.4E-14, 6.6000000000000009E-14, 1.4E-14, 2.3355000000000003E-11
DataValue, -1.84, 0.1, -2.5841000000000003E-11, 8.2E-14, -8E-15, 8.2E-14, 8E-15, 2.5841000000000003E-11
DataValue, -1.82, 0.1, -2.5662000000000003E-11, 5.9E-14, -2.7000000000000002E-14, 5.9E-14, 2.7000000000000002E-14, 2.5662000000000003E-11
DataValue, -1.8, 0.1, -2.6470000000000003E-11, 4.6000000000000006E-14, -2.1000000000000002E-14, 4.6000000000000006E-14, 2.1000000000000002E-14, 2.6470000000000003E-11
DataValue, -1.78, 0.1, -2.5884E-11, 3.7E-14, -2.1000000000000002E-14, 3.7E-14, 2.1000000000000002E-14, 2.5884E-11
DataValue, -1.76, 0.1, -2.4732000000000002E-11, -6.4500000000000008E-13, 2.2E-14, 6.4500000000000008E-13, 2.2E-14, 2.4732000000000002E-11
DataValue, -1.74, 0.1, -3.7779E-11, 2.2E-14, -8E-15, 2.2E-14, 8E-15, 3.7779E-11
DataValue, -1.72, 0.1, -1.6228E-11, -8E-15, -7E-14, 8E-15, 7E-14, 1.6228E-11
DataValue, -1.7000000000000002, 0.1, -1.4909E-11, -8E-15, -2.1000000000000002E-14, 8E-15, 2.1000000000000002E-14, 1.4909E-11
DataValue, -1.6800000000000002, 0.1, -1.3228000000000001E-11, 1E-15, -5.6E-14, 1E-15, 5.6E-14, 1.3228000000000001E-11
DataValue, -1.6600000000000001, 0.1, -2.4818000000000004E-11, 3.9000000000000004E-14, -3.3000000000000005E-14, 3.9000000000000004E-14, 3.3000000000000005E-14, 2.4818000000000004E-11
DataValue, -1.6400000000000001, 0.1, -1.9149E-11, 4.11E-13, -6.8E-14, 4.11E-13, 6.8E-14, 1.9149E-11
DataValue, -1.62, 0.1, -6.565E-12, -3.8E-14, -8.9000000000000012E-14, 3.8E-14, 8.9000000000000012E-14, 6.565E-12
DataValue, -1.6, 0.1, -1.58E-11, -2.2E-14, -5.9E-14, 2.2E-14, 5.9E-14, 1.58E-11
DataValue, -1.58, 0.1, -1.2795000000000001E-11, -1.52E-13, -4E-15, 1.52E-13, 4E-15, 1.2795000000000001E-11
DataValue, -1.56, 0.1, -2.0518000000000003E-11, 1E-15, -3.2E-14, 1E-15, 3.2E-14, 2.0518000000000003E-11
DataValue, -1.54, 0.1, -1.7132E-11, -3.7E-14, -5.700000000000001E-14, 3.7E-14, 5.700000000000001E-14, 1.7132E-11
DataValue, -1.52, 0.1, -1.2915000000000001E-11, -5.4000000000000003E-14, -8.9000000000000012E-14, 5.4000000000000003E-14, 8.9000000000000012E-14, 1.2915000000000001E-11
DataValue, -1.5, 0.1, -3.017E-12, -6.3000000000000009E-14, 6.4800000000000007E-13, 6.3000000000000009E-14, 6.4800000000000007E-13, 3.017E-12
DataValue, -1.48, 0.1, 1.9551000000000002E-11, -1.0100000000000001E-13, -1.3700000000000002E-13, 1.0100000000000001E-13, 1.3700000000000002E-13, 1.9551000000000002E-11
DataValue, -1.46, 0.1, 1.7404E-11, -1E-13, -1.16E-13, 1E-13, 1.16E-13, 1.7404E-11
DataValue, -1.4400000000000002, 0.1, 1.6211E-11, -9.0000000000000008E-14, -1.5620000000000002E-12, 9.0000000000000008E-14, 1.5620000000000002E-12, 1.6211E-11
DataValue, -1.4200000000000002, 0.1, -5.1710000000000005E-12, -6.7E-14, -6.9000000000000009E-14, 6.7E-14, 6.9000000000000009E-14, 5.1710000000000005E-12
DataValue, -1.4000000000000001, 0.1, -1.352E-12, -8.4000000000000008E-14, -8.9000000000000012E-14, 8.4000000000000008E-14, 8.9000000000000012E-14, 1.352E-12
DataValue, -1.3800000000000001, 0.1, 9.076E-12, -8.6000000000000012E-14, -9.0400000000000009E-13, 8.6000000000000012E-14, 9.0400000000000009E-13, 9.076E-12
DataValue, -1.36, 0.1, 3.31E-13, -6.1E-14, -7.1E-14, 6.1E-14, 7.1E-14, 3.31E-13
DataValue, -1.34, 0.1, 2.2830000000000003E-12, -8.6000000000000012E-14, -9.8000000000000012E-14, 8.6000000000000012E-14, 9.8000000000000012E-14, 2.2830000000000003E-12
DataValue, -1.32, 0.1, 3.8010000000000005E-12, -7.6E-14, -1.4900000000000002E-13, 7.6E-14, 1.4900000000000002E-13, 3.8010000000000005E-12
DataValue, -1.3, 0.1, 4.8710000000000006E-12, -6.5E-14, -9.2000000000000012E-14, 6.5E-14, 9.2000000000000012E-14, 4.8710000000000006E-12
DataValue, -1.28, 0.1, 6.6820000000000008E-12, -8.5E-14, -1.0700000000000001E-13, 8.5E-14, 1.0700000000000001E-13, 6.6820000000000008E-12
DataValue, -1.26, 0.1, 8.733E-12, -7.5000000000000009E-14, -1.34E-13, 7.5000000000000009E-14, 1.34E-13, 8.733E-12
DataValue, -1.24, 0.1, 1.0758000000000001E-11, -8.9000000000000012E-14, -8.6000000000000012E-14, 8.9000000000000012E-14, 8.6000000000000012E-14, 1.0758000000000001E-11
DataValue, -1.22, 0.1, 6.8850000000000007E-12, -8.4000000000000008E-14, -8.3000000000000012E-14, 8.4000000000000008E-14, 8.3000000000000012E-14, 6.8850000000000007E-12
DataValue, -1.2, 0.1, 4.344E-12, -8.4000000000000008E-14, 5.23E-13, 8.4000000000000008E-14, 5.23E-13, 4.344E-12
DataValue, -1.1800000000000002, 0.1, 1.6113E-11, -7.8000000000000008E-14, -9.7E-14, 7.8000000000000008E-14, 9.7E-14, 1.6113E-11
DataValue, -1.1600000000000001, 0.1, 1.7756E-11, -1.17E-13, -1.19E-13, 1.17E-13, 1.19E-13, 1.7756E-11
DataValue, -1.1400000000000001, 0.1, 1.8623000000000003E-11, -8.2E-14, 5.91E-13, 8.2E-14, 5.91E-13, 1.8623000000000003E-11
DataValue, -1.12, 0.1, 3.6059E-11, -1.29E-13, -1.46E-13, 1.29E-13, 1.46E-13, 3.6059E-11
DataValue, -1.1, 0.1, 3.4896E-11, -1.3100000000000002E-13, -1.3100000000000002E-13, 1.3100000000000002E-13, 1.3100000000000002E-13, 3.4896E-11
DataValue, -1.08, 0.1, 3.26E-11, -1.22E-13, 5.9900000000000007E-13, 1.22E-13, 5.9900000000000007E-13, 3.26E-11
DataValue, -1.06, 0.1, 5.2477E-11, -1.6200000000000002E-13, -1.7300000000000002E-13, 1.6200000000000002E-13, 1.7300000000000002E-13, 5.2477E-11
DataValue, -1.04, 0.1, 1.8109E-11, -7.6E-14, -9.0000000000000008E-14, 7.6E-14, 9.0000000000000008E-14, 1.8109E-11
DataValue, -1.02, 0.1, 1.4045000000000002E-11, -8.1000000000000008E-14, -7.820000000000001E-13, 8.1000000000000008E-14, 7.820000000000001E-13, 1.4045000000000002E-11
DataValue, -1, 0.1, 4.827E-12, -5.5000000000000005E-14, -6.8E-14, 5.5000000000000005E-14, 6.8E-14, 4.827E-12
DataValue, -0.98000000000000009, 0.1, 7.7220000000000012E-12, -6.2E-14, -9.5000000000000012E-14, 6.2E-14, 9.5000000000000012E-14, 7.7220000000000012E-12
DataValue, -0.96000000000000008, 0.1, 1.1030000000000001E-11, -5.6E-14, 5.41E-13, 5.6E-14, 5.41E-13, 1.1030000000000001E-11
DataValue, -0.94000000000000006, 0.1, 4.64E-11, -1.2700000000000001E-13, -1.1500000000000002E-13, 1.2700000000000001E-13, 1.1500000000000002E-13, 4.64E-11
DataValue, -0.92, 0.1, 2.2578000000000003E-11, -1.0100000000000001E-13, -9.3000000000000008E-14, 1.0100000000000001E-13, 9.3000000000000008E-14, 2.2578000000000003E-11
DataValue, -0.9, 0.1, 2.4484E-11, -9.0000000000000008E-14, -6.8E-14, 9.0000000000000008E-14, 6.8E-14, 2.4484E-11
DataValue, -0.88, 0.1, 4.3577000000000006E-11, -9.7E-14, -1.53E-13, 9.7E-14, 1.53E-13, 4.3577000000000006E-11
DataValue, -0.86, 0.1, 4.0010000000000006E-11, -1.12E-13, -1.19E-13, 1.12E-13, 1.19E-13, 4.0010000000000006E-11
DataValue, -0.84000000000000008, 0.1, 3.8272000000000005E-11, -2.4200000000000003E-13, -9.3000000000000008E-14, 2.4200000000000003E-13, 9.3000000000000008E-14, 3.8272000000000005E-11
DataValue, -0.82000000000000006, 0.1, 2.0620000000000002E-11, -8.9000000000000012E-14, -7.5000000000000009E-14, 8.9000000000000012E-14, 7.5000000000000009E-14, 2.0620000000000002E-11
DataValue, -0.8, 0.1, 2.3234000000000002E-11, -8.0000000000000013E-14, -8.9000000000000012E-14, 8.0000000000000013E-14, 8.9000000000000012E-14, 2.3234000000000002E-11
DataValue, -0.78, 0.1, 2.4904E-11, 2.92E-13, -1.17E-13, 2.92E-13, 1.17E-13, 2.4904E-11
DataValue, -0.76, 0.1, 4.7243E-11, -1.3100000000000002E-13, -1.3700000000000002E-13, 1.3100000000000002E-13, 1.3700000000000002E-13, 4.7243E-11
DataValue, -0.74, 0.1, 4.1478000000000004E-11, -1.24E-13, -1.0500000000000001E-13, 1.24E-13, 1.0500000000000001E-13, 4.1478000000000004E-11
DataValue, -0.72000000000000008, 0.1, 3.9359000000000005E-11, -7.07E-13, -9.8000000000000012E-14, 7.07E-13, 9.8000000000000012E-14, 3.9359000000000005E-11
DataValue, -0.70000000000000007, 0.1, 2.2152E-11, -9.4E-14, -1.0200000000000001E-13, 9.4E-14, 1.0200000000000001E-13, 2.2152E-11
DataValue, -0.68, 0.1, 2.4512000000000002E-11, -1.12E-13, -8.9000000000000012E-14, 1.12E-13, 8.9000000000000012E-14, 2.4512000000000002E-11
DataValue, -0.66, 0.1, 2.7666E-11, -1.48E-13, -8.3000000000000012E-14, 1.48E-13, 8.3000000000000012E-14, 2.7666E-11
DataValue, -0.64, 0.1, 2.8293000000000003E-11, -7.1E-14, -9.1E-14, 7.1E-14, 9.1E-14, 2.8293000000000003E-11
DataValue, -0.62, 0.1, 5.0825E-11, -1.2600000000000002E-13, -1.3100000000000002E-13, 1.2600000000000002E-13, 1.3100000000000002E-13, 5.0825E-11
DataValue, -0.6, 0.1, 4.6889000000000003E-11, -1.5600000000000002E-13, -1.0400000000000001E-13, 1.5600000000000002E-13, 1.0400000000000001E-13, 4.6889000000000003E-11
DataValue, -0.58000000000000007, 0.1, 4.3816E-11, -9.7E-14, -1.1000000000000001E-13, 9.7E-14, 1.1000000000000001E-13, 4.3816E-11
DataValue, -0.56, 0.1, 4.1938E-11, -9.9000000000000007E-14, -1.12E-13, 9.9000000000000007E-14, 1.12E-13, 4.1938E-11
DataValue, -0.54, 0.1, 3.9644E-11, -6.9600000000000006E-13, -6.1E-14, 6.9600000000000006E-13, 6.1E-14, 3.9644E-11
DataValue, -0.52, 0.1, 2.2553000000000002E-11, -8.4000000000000008E-14, -6.7E-14, 8.4000000000000008E-14, 6.7E-14, 2.2553000000000002E-11
DataValue, -0.5, 0.1, 4.5145E-11, -1.18E-13, -1.0800000000000001E-13, 1.18E-13, 1.0800000000000001E-13, 4.5145E-11
DataValue, -0.48000000000000004, 0.1, 4.1723000000000005E-11, -6.9500000000000007E-13, -6.8E-14, 6.9500000000000007E-13, 6.8E-14, 4.1723000000000005E-11
DataValue, -0.46, 0.1, 2.4474000000000003E-11, -8.4000000000000008E-14, -9.5000000000000012E-14, 8.4000000000000008E-14, 9.5000000000000012E-14, 2.4474000000000003E-11
DataValue, -0.44, 0.1, 2.7177000000000003E-11, -8.6000000000000012E-14, -1.19E-13, 8.6000000000000012E-14, 1.19E-13, 2.7177000000000003E-11
DataValue, -0.42000000000000004, 0.1, 2.8951000000000003E-11, -7.49E-13, -1E-13, 7.49E-13, 1E-13, 2.8951000000000003E-11
DataValue, -0.4, 0.1, 1.5596E-11, -6.2E-14, -8.7000000000000008E-14, 6.2E-14, 8.7000000000000008E-14, 1.5596E-11
DataValue, -0.38, 0.1, 6.0357E-11, -9.7E-14, -1.9500000000000003E-13, 9.7E-14, 1.9500000000000003E-13, 6.0357E-11
DataValue, -0.36000000000000004, 0.1, 5.4158000000000006E-11, -4.3000000000000006E-14, -1.9800000000000002E-13, 4.3000000000000006E-14, 1.9800000000000002E-13, 5.4158000000000006E-11
DataValue, -0.34, 0.1, 4.8657E-11, 7.1E-14, -2.81E-13, 7.1E-14, 2.81E-13, 4.8657E-11
DataValue, -0.32, 0.1, 2.3708E-11, 2.56E-13, -3.9000000000000005E-13, 2.56E-13, 3.9000000000000005E-13, 2.3708E-11
DataValue, -0.3, 0.1, 2.7131000000000003E-11, 1E-12, -7.6200000000000009E-13, 1E-12, 7.6200000000000009E-13, 2.7131000000000003E-11
DataValue, -0.28, 0.1, 4.9891000000000004E-11, 1.1710000000000002E-12, -1.402E-12, 1.1710000000000002E-12, 1.402E-12, 4.9891000000000004E-11
DataValue, -0.26, 0.1, 4.7789E-11, 2.381E-12, -2.577E-12, 2.381E-12, 2.577E-12, 4.7789E-11
DataValue, -0.24000000000000002, 0.1, 4.5738000000000004E-11, 4.5740000000000005E-12, -4.961E-12, 4.5740000000000005E-12, 4.961E-12, 4.5738000000000004E-11
DataValue, -0.22, 0.1, 2.5948E-11, 9.5870000000000011E-12, -9.657E-12, 9.5870000000000011E-12, 9.657E-12, 2.5948E-11
DataValue, -0.2, 0.1, 5.2127000000000005E-11, 1.8901000000000003E-11, -1.9027E-11, 1.8901000000000003E-11, 1.9027E-11, 5.2127000000000005E-11
DataValue, -0.18000000000000002, 0.1, 4.8130000000000006E-11, 3.7487000000000005E-11, -3.7406E-11, 3.7487000000000005E-11, 3.7406E-11, 4.8130000000000006E-11
DataValue, -0.16, 0.1, 2.9097000000000002E-11, 7.4287000000000009E-11, -7.4381E-11, 7.4287000000000009E-11, 7.4381E-11, 2.9097000000000002E-11
DataValue, -0.14, 0.1, 1.6633E-11, 1.47066E-10, -1.46452E-10, 1.47066E-10, 1.46452E-10, 1.6633E-11
DataValue, -0.12000000000000001, 0.1, 2.1445000000000003E-11, 2.90432E-10, -2.8924100000000004E-10, 2.90432E-10, 2.8924100000000004E-10, 2.1445000000000003E-11
DataValue, -0.1, 0.1, 6.4782E-11, 5.73944E-10, -5.71169E-10, 5.73944E-10, 5.71169E-10, 6.4782E-11
DataValue, -0.08, 0.1, 3.2583000000000005E-11, 1.1227710000000002E-09, -1.118055E-09, 1.1227710000000002E-09, 1.118055E-09, 3.2583000000000005E-11
DataValue, -0.060000000000000005, 0.1, 4.9684000000000005E-11, 2.17535E-09, -2.1628E-09, 2.17535E-09, 2.1628E-09, 4.9684000000000005E-11
DataValue, -0.04, 0.1, 5.6459E-11, 4.18543E-09, -4.1772E-09, 4.18543E-09, 4.1772E-09, 5.6459E-11
DataValue, -0.02, 0.1, 3.2351000000000005E-11, 7.89262E-09, -7.88852E-09, 7.89262E-09, 7.88852E-09, 3.2351000000000005E-11
DataValue, 0, 0.1, 3.7028E-11, 1.4485299999999998E-08, -1.44349E-08, 1.4485299999999998E-08, 1.44349E-08, 3.7028E-11
DataValue, 0.02, 0.1, 4.0459000000000006E-11, 2.5880299999999997E-08, -2.58452E-08, 2.5880299999999997E-08, 2.58452E-08, 4.0459000000000006E-11
DataValue, 0.04, 0.1, 4.7044E-11, 4.43609E-08, -4.4334699999999997E-08, 4.43609E-08, 4.4334699999999997E-08, 4.7044E-11
DataValue, 0.060000000000000005, 0.1, 6.9378E-11, 7.34903E-08, -7.33633E-08, 7.34903E-08, 7.33633E-08, 6.9378E-11
DataValue, 0.08, 0.1, 7.6902E-11, 1.16041E-07, -1.15947E-07, 1.16041E-07, 1.15947E-07, 7.6902E-11
DataValue, 0.1, 0.1, 5.2196E-11, 1.77022E-07, -1.7679199999999999E-07, 1.77022E-07, 1.7679199999999999E-07, 5.2196E-11
DataValue, 0.12000000000000001, 0.1, 4.3857000000000004E-11, 2.60781E-07, -2.60347E-07, 2.60781E-07, 2.60347E-07, 4.3857000000000004E-11
